   47.582580 2  001       Rx   d 6 0D 01 00 10 00 00 
   47.582592 2  002       Rx   d 2 0D 01 
   47.584027 2  001       Rx   d 8 0B 01 08 02 00 00 C6 87 
   47.680518 2  002       Rx   d 3 0B 01 01 
   47.681376 2  001       Rx   d 6 18 01 A9 31 BA 5D 
   47.682428 2  002       Rx   d 2 18 01 
   47.684455 2  001       Rx   d 6 0D 01 00 0A 00 80 
   47.684474 2  002       Rx   d 2 0D 01 
   47.684480 2  001       Rx   d 6 10 01 00 00 00 10 
   47.684487 2  002       Rx   d 6 10 01 10 72 AE E8 
   47.685847 2  001       Rx   d 7 04 01 00 0A 00 80 10 
   47.685863 2  002       Rx   d 8 04 01 00 0A 01 00 00 06 
   47.686909 2  002       Rx   d 8 04 01 C5 88 9A 7C 66 1A 
   47.686926 2  002       Rx   d 6 04 01 B4 0E 81 81 
   47.687833 2  001       Rx   d 4 1F 01 00 00 
   47.689818 2  002       Rx   d 8 1F 01 00 00 B4 0E 81 81 
   47.690812 2  001       Rx   d 4 1F 01 00 01 
   47.690824 2  002       Rx   d 8 1F 01 00 01 9A 7C 66 1A 
   47.695283 2  001       Rx   d 8 20 01 00 0A 00 00 00 00 
   47.945114 2  002       Rx   d 3 20 01 01 
   47.946106 2  001       Rx   d 8 20 01 00 0C 00 00 00 00 
   48.195952 2  002       Rx   d 3 20 01 01 
   48.197412 2  001       Rx   d 8 20 01 00 0E 00 00 00 00 
   48.446741 2  002       Rx   d 3 20 01 01 
   48.447732 2  001       Rx   d 8 20 01 00 10 00 00 00 00 
   48.697559 2  002       Rx   d 3 20 01 01 
   48.698553 2  001       Rx   d 7 04 01 00 00 FF 80 80 
   48.699539 2  002       Rx   d 8 04 01 00 20 08 07 00 00 
   48.699554 2  002       Rx   d 8 04 01 00 01 00 00 00 01 
   48.699561 2  002       Rx   d 8 04 01 00 00 03 02 00 00 
   48.699568 2  002       Rx   d 8 04 01 00 00 00 00 00 01 
   48.699574 2  002       Rx   d 8 04 01 00 00 00 00 00 00 
   48.700531 2  002       Rx   d 8 04 01 00 02 00 00 01 F4 
   48.700558 2  002       Rx   d 8 04 01 00 00 00 00 00 00 
   48.700564 2  002       Rx   d 8 04 01 00 01 0A 64 1E C8 
   48.700570 2  002       Rx   d 8 04 01 FF FF 00 00 EF 00 
   48.701525 2  002       Rx   d 8 04 01 00 01 00 00 00 00 
   48.701539 2  002       Rx   d 8 04 01 00 00 00 00 00 00 
   48.701544 2  002       Rx   d 8 04 01 00 00 00 00 00 00 
   48.701548 2  002       Rx   d 8 04 01 00 00 00 00 00 00 
   48.702518 2  002       Rx   d 8 04 01 00 00 00 00 00 00 
   48.702541 2  002       Rx   d 8 04 01 00 01 00 00 0B 1F 
   48.702547 2  002       Rx   d 8 04 01 7A 3A 73 0D 2F 82 
   48.702554 2  002       Rx   d 8 04 01 DB AF 6F B5 4D 00 
   48.703511 2  002       Rx   d 8 04 01 D7 94 15 18 BA DA 
   48.703521 2  002       Rx   d 8 04 01 E1 AB DB 91 D7 34 
   48.703528 2  002       Rx   d 8 04 01 82 34 D9 1F EC FA 
   48.703535 2  002       Rx   d 8 04 01 1B 1B DF A4 35 4F 
   48.704504 2  002       Rx   d 4 04 01 05 3D 
   48.705498 2  001       Rx   d 7 04 01 00 0A 00 00 80 
   48.705510 2  002       Rx   d 8 04 01 02 06 00 00 00 00 
   48.706503 2  002       Rx   d 8 04 01 00 00 3E 3A 10 17 
   48.706513 2  002       Rx   d 8 04 01 00 20 10 07 00 0A 
   48.706519 2  002       Rx   d 8 04 01 00 80 00 00 00 01 
   48.706526 2  002       Rx   d 8 04 01 03 36 1A 42 10 72 
   48.707487 2  002       Rx   d 8 04 01 AE E8 00 00 00 01 
   48.707497 2  002       Rx   d 8 04 01 A9 31 BA 5D C0 00 
   48.707503 2  002       Rx   d 8 04 01 00 00 00 00 00 00 
   48.707508 2  002       Rx   d 8 04 01 00 00 00 00 00 00 
   48.707513 2  002       Rx   d 8 04 01 00 00 00 0E D5 00 
   48.708975 2  002       Rx   d 8 04 01 00 00 00 00 00 00 
   48.708986 2  002       Rx   d 8 04 01 00 01 00 00 00 00 
   48.708993 2  002       Rx   d 8 04 01 00 00 00 02 17 1B 
   48.708998 2  002       Rx   d 8 04 01 6F E0 01 00 00 00 
   48.709513 2  002       Rx   d 8 04 01 00 00 01 F4 00 00 
   48.709523 2  002       Rx   d 8 04 01 00 02 00 00 00 00 
   48.709530 2  002       Rx   d 8 04 01 99 FA D0 B0 0A 64 
   48.709536 2  002       Rx   d 8 04 01 1E C8 FF FF 00 00 
   48.710962 2  002       Rx   d 8 04 01 EF 00 00 01 00 00 
   48.710974 2  002       Rx   d 8 04 01 00 00 00 00 00 00 
   48.710980 2  002       Rx   d 8 04 01 00 00 00 00 6B 84 
   48.710985 2  002       Rx   d 4 04 01 2A 87 
   48.711954 2  001       Rx   d 6 18 01 B6 E0 C2 EC 
   48.711965 2  002       Rx   d 2 18 01 
   48.712948 2  001       Rx   d 6 0D 01 00 0A 00 00 
   48.712957 2  002       Rx   d 2 0D 01 
   48.713941 2  001       Rx   d 6 10 01 00 00 00 7C 
   48.713956 2  002       Rx   d 6 10 01 6B 84 2A 87 
   48.714937 2  001       Rx   d 6 18 01 A9 31 BA 5D 
   48.714951 2  002       Rx   d 2 18 01 
   48.715930 2  001       Rx   d 6 0D 01 00 0A 00 80 
   48.715947 2  002       Rx   d 2 0D 01 
   48.716920 2  001       Rx   d 6 10 01 00 00 00 10 
   48.716929 2  002       Rx   d 6 10 01 10 72 AE E8 
   48.717915 2  001       Rx   d 7 04 01 00 0A 00 80 10 
   48.717924 2  002       Rx   d 8 04 01 00 0A 01 00 00 06 
   48.717931 2  002       Rx   d 8 04 01 C5 88 9A 7C 66 1A 
   48.718906 2  002       Rx   d 6 04 01 B4 0E 81 81 
   48.719902 2  001       Rx   d 4 1F 01 00 00 
   48.721889 2  002       Rx   d 8 1F 01 00 00 B4 0E 81 81 
   48.722882 2  001       Rx   d 4 1F 01 00 01 
   48.722895 2  002       Rx   d 8 1F 01 00 01 9A 7C 66 1A 
   48.723876 2  001       Rx   d 7 04 01 00 09 FF 80 80 
   48.723890 2  002       Rx   d 8 04 01 00 01 00 00 00 20 
   48.723897 2  002       Rx   d 8 04 01 08 07 00 00 00 01 
   48.724868 2  002       Rx   d 8 04 01 00 01 00 00 00 10 
   48.724876 2  002       Rx   d 8 04 01 05 01 4B CD 21 F4 
   48.724883 2  002       Rx   d 8 04 01 4B CE 00 00 00 00 
   48.724889 2  002       Rx   d 8 04 01 00 00 00 00 00 00 
   48.725860 2  002       Rx   d 8 04 01 00 00 00 00 00 00 
   48.725868 2  002       Rx   d 8 04 01 00 00 00 00 00 00 
   48.725873 2  002       Rx   d 8 04 01 00 00 00 00 00 00 
   48.725877 2  002       Rx   d 8 04 01 00 00 00 00 00 00 
   48.726855 2  002       Rx   d 8 04 01 00 00 00 00 00 00 
   48.726864 2  002       Rx   d 8 04 01 00 00 00 00 00 00 
   48.726868 2  002       Rx   d 8 04 01 00 00 00 00 00 00 
   48.726873 2  002       Rx   d 8 04 01 00 00 00 00 00 00 
   48.727847 2  002       Rx   d 8 04 01 00 00 00 00 0B 1F 
   48.727856 2  002       Rx   d 8 04 01 7A 3A 73 0D 2F 82 
   48.727863 2  002       Rx   d 8 04 01 DB 09 7C 32 37 A2 
   48.727869 2  002       Rx   d 8 04 01 D3 A4 4C BE 76 44 
   48.728848 2  002       Rx   d 8 04 01 E6 6C 37 07 A9 15 
   48.728859 2  002       Rx   d 8 04 01 FC 64 39 FB D9 9C 
   48.728866 2  002       Rx   d 8 04 01 FE 0D D6 92 3A C8 
   48.728874 2  002       Rx   d 4 04 01 3D 5B 
   48.729838 2  001       Rx   d 6 18 01 0A EC AB 26 
   48.729852 2  002       Rx   d 2 18 01 
   48.730827 2  001       Rx   d 6 0D 01 00 02 00 00 
   48.730839 2  002       Rx   d 2 0D 01 
   48.732285 2  001       Rx   d 6 10 01 00 07 FF 80 
   48.767461 2  002       Rx   d 6 10 01 E6 13 D8 8C 
   48.768617 2  001       Rx   d 7 04 01 00 01 80 00 80 
   48.768636 2  002       Rx   d 8 04 01 01 31 34 38 36 30 
   48.769573 2  002       Rx   d 8 04 01 32 32 34 30 31 34 
   48.769591 2  002       Rx   d 8 04 01 33 30 30 31 34 38 
   48.769598 2  002       Rx   d 8 04 01 36 30 32 32 34 34 
   48.769605 2  002       Rx   d 8 04 01 33 30 30 54 54 43 
   48.770566 2  002       Rx   d 8 04 01 2D 35 38 30 30 30 
   48.770583 2  002       Rx   d 8 04 01 30 30 41 53 56 30 
   48.770590 2  002       Rx   d 8 04 01 31 30 38 30 32 42 
   48.770598 2  002       Rx   d 8 04 01 55 30 30 35 39 4C 
   48.771558 2  002       Rx   d 8 04 01 35 38 45 20 20 20 
   48.771575 2  002       Rx   d 8 04 01 20 20 20 20 38 38 
   48.771583 2  002       Rx   d 8 04 01 32 33 66 65 30 32 
   48.771590 2  002       Rx   d 8 04 01 37 35 33 62 00 00 
   48.772550 2  002       Rx   d 8 04 01 00 00 00 00 00 00 
   48.772563 2  002       Rx   d 8 04 01 00 00 00 00 00 00 
   48.772568 2  002       Rx   d 8 04 01 00 00 00 00 00 00 
   48.772573 2  002       Rx   d 8 04 01 00 00 00 00 00 00 
   48.773215 2  002       Rx   d 8 04 01 00 00 00 00 00 00 
   48.773226 2  002       Rx   d 8 04 01 00 00 00 00 00 00 
   48.773231 2  002       Rx   d 8 04 01 00 00 00 00 00 00 
   48.773235 2  002       Rx   d 8 04 01 00 00 00 00 00 00 
   48.774539 2  002       Rx   d 4 04 01 00 00 
   48.775530 2  001       Rx   d 7 11 FF 00 00 00 00 00 
   48.775550 2  001       Rx   d 7 11 01 01 17 7B CF 01 
   48.775560 2  002       Rx   d 6 11 01 01 17 7B CF 
   48.776718 2  001       Rx   d 6 19 01 28 5A 6B 60 
   48.776731 2  002       Rx   d 3 19 01 01 
   48.778004 2  001       Rx   d 7 11 01 01 17 7B CF 00 
   48.778017 2  002       Rx   d 6 11 01 01 17 7B CF 
   48.809801 2  001       Rx   d 7 11 FF 00 00 00 00 00 
   48.810791 2  001       Rx   d 7 11 01 01 17 7B CF 01 
   48.810810 2  002       Rx   d 6 11 01 01 17 7B CF 
   48.811786 2  001       Rx   d 6 19 01 4E 37 A5 BD 
   48.811800 2  002       Rx   d 3 19 01 01 
   48.812779 2  001       Rx   d 7 11 01 01 17 7B CF 01 
   48.812791 2  002       Rx   d 6 11 01 01 17 7B CF 
   48.813775 2  001       Rx   d 6 18 01 A9 31 BA 5D 
   48.813789 2  002       Rx   d 2 18 01 
   48.814767 2  001       Rx   d 6 0D 01 00 0A 00 80 
   48.814782 2  002       Rx   d 2 0D 01 
   48.815758 2  001       Rx   d 6 10 01 00 00 00 10 
   48.815772 2  002       Rx   d 6 10 01 10 72 AE E8 
   48.816752 2  001       Rx   d 7 04 01 00 0A 00 80 10 
   48.816765 2  002       Rx   d 8 04 01 00 0A 01 00 00 06 
   48.816774 2  002       Rx   d 8 04 01 C5 88 9A 7C 66 1A 
   48.817744 2  002       Rx   d 6 04 01 B4 0E 81 81 
   48.818739 2  001       Rx   d 4 1F 01 00 00 
   48.821224 2  002       Rx   d 8 1F 01 00 00 B4 0E 81 81 
   48.825145 2  001       Rx   d 4 1F 01 00 01 
   48.825162 2  002       Rx   d 8 1F 01 00 01 9A 7C 66 1A 
   48.825171 2  001       Rx   d 7 11 FF 00 00 00 00 00 
   48.825178 2  001       Rx   d 7 11 01 01 17 7B CF 01 
   48.825185 2  002       Rx   d 6 11 01 01 17 7B CF 
   48.825196 2  001       Rx   d 6 19 01 28 5A 6B 60 
   48.825205 2  002       Rx   d 3 19 01 01 
   48.825211 2  001       Rx   d 7 11 01 01 17 7B CF 00 
   48.825217 2  002       Rx   d 6 11 01 01 17 7B CF 
   48.860503 2  001       Rx   d 7 11 FF 00 00 00 00 00 
   48.861518 2  001       Rx   d 7 11 01 01 17 7B CF 01 
   48.861536 2  002       Rx   d 6 11 01 01 17 7B CF 
   48.862531 2  001       Rx   d 6 19 01 4E 37 A5 BD 
   48.862547 2  002       Rx   d 3 19 01 01 
   48.863517 2  001       Rx   d 7 11 01 01 17 7B CF 01 
   48.863535 2  002       Rx   d 6 11 01 01 17 7B CF 
   48.864936 2  001       Rx   d 6 18 01 A9 31 BA 5D 
   48.864951 2  002       Rx   d 2 18 01 
   48.865465 2  001       Rx   d 6 0D 01 00 0A 00 80 
   48.865476 2  002       Rx   d 2 0D 01 
   48.866914 2  001       Rx   d 6 10 01 00 00 00 10 
   48.866924 2  002       Rx   d 6 10 01 10 72 AE E8 
   48.867935 2  001       Rx   d 7 04 01 00 0A 00 80 10 
   48.867947 2  002       Rx   d 8 04 01 00 0A 01 00 00 06 
   48.867958 2  002       Rx   d 8 04 01 C5 88 9A 7C 66 1A 
   48.868905 2  002       Rx   d 6 04 01 B4 0E 81 81 
   48.869899 2  001       Rx   d 4 1F 01 00 00 
   48.871883 2  002       Rx   d 8 1F 01 00 00 B4 0E 81 81 
   48.872877 2  001       Rx   d 4 1F 01 00 01 
   48.872895 2  002       Rx   d 8 1F 01 00 01 9A 7C 66 1A 
   48.873873 2  001       Rx   d 7 11 FF 00 00 00 00 00 
   48.873895 2  001       Rx   d 7 11 01 01 17 7B CF 01 
   48.873903 2  002       Rx   d 6 11 01 01 17 7B CF 
   48.874864 2  001       Rx   d 6 19 01 28 5A 6B 60 
   48.874882 2  002       Rx   d 3 19 01 01 
   48.875859 2  001       Rx   d 7 11 01 01 17 7B CF 00 
   48.875876 2  002       Rx   d 6 11 01 01 17 7B CF 
   51.047280 2  001       Rx   d 7 11 FF 00 00 00 00 01 
   51.048273 2  001       Rx   d 2 03 FF 
