   2001.484525 1  001       Rx   d 2 14 00 
   2001.531147 1  001       Rx   d 2 14 01 
   2001.532139 1  002       Rx   d 6 14 01 8E D8 B6 9B 
   2001.546035 1  001       Rx   d 2 14 05 
   2001.592165 1  001       Rx   d 2 14 0A 
   2001.638299 1  001       Rx   d 2 14 69 
   2001.930470 1  001       Rx   d 7 11 FF 00 00 00 00 00 
   2001.931456 1  001       Rx   d 7 11 01 8E D8 B6 9B 01 
   2001.931509 1  002       Rx   d 6 11 01 8E D8 B6 9B 
   2002.944754 1  001       Rx   d 7 17 01 B9 20 2E E7 00 
   2002.946237 1  002       Rx   d 8 17 01 73 72 06 FE 03 02 
   2002.947226 1  001       Rx   d 7 17 01 5B 5E 46 81 01 
   2002.947254 1  002       Rx   d 8 17 01 71 82 A5 20 03 02 
   2003.006772 1  001       Rx   d 7 11 FF 00 00 00 00 00 
   2003.037038 1  001       Rx   d 7 11 FF 00 00 00 00 00 
   2003.038026 1  001       Rx   d 7 11 01 8E D8 B6 9B 01 
   2003.038042 1  002       Rx   d 6 11 01 8E D8 B6 9B 
   2004.052338 1  001       Rx   d 6 0D 01 08 00 30 00 
   2004.053015 1  002       Rx   d 2 0D 01 
   2004.054336 1  001       Rx   d 8 05 01 00 20 08 07 00 00 
   2004.055315 1  001       Rx   d 8 05 01 00 01 00 00 00 01 
   2004.055360 1  001       Rx   d 8 05 01 00 00 03 00 00 00 
   2004.055384 1  001       Rx   d 8 05 01 00 00 00 00 00 01 
   2004.056302 1  001       Rx   d 8 05 01 00 00 00 00 00 00 
   2004.056347 1  001       Rx   d 8 05 01 00 02 00 00 01 F4 
   2004.056369 1  001       Rx   d 8 05 01 00 00 00 00 00 00 
   2004.056387 1  001       Rx   d 8 05 01 00 01 0A 64 1E C8 
   2004.057298 1  001       Rx   d 8 05 01 FF FF 00 00 EF 00 
   2004.057359 1  001       Rx   d 8 05 01 00 01 00 00 00 00 
   2004.057383 1  001       Rx   d 8 05 01 00 00 00 00 00 00 
   2004.057403 1  001       Rx   d 2 02 01 
   2004.057418 1  002       Rx   d 6 02 01 00 42 00 00 
   2004.058288 1  001       Rx   d 8 05 01 00 00 00 00 00 00 
   2004.059279 1  001       Rx   d 8 05 01 00 00 00 00 00 00 
   2004.059323 1  001       Rx   d 8 05 01 00 00 00 00 00 01 
   2004.059344 1  001       Rx   d 8 05 01 00 01 00 00 0B 1F 
   2004.060941 1  001       Rx   d 8 05 01 7A 3A EB 43 CD 41 
   2004.060999 1  001       Rx   d 8 05 01 B7 00 78 D4 0B 0D 
   2004.061022 1  001       Rx   d 8 05 01 7F 68 D2 E5 77 CE 
   2004.061039 1  001       Rx   d 8 05 01 10 AD C1 98 BB 08 
   2004.061055 1  001       Rx   d 8 05 01 8A 50 B4 76 DA A4 
   2004.061263 1  001       Rx   d 8 05 01 9E 7A 51 54 F8 A2 
   2004.061299 1  001       Rx   d 8 05 01 06 DB E2 80 20 0C 
   2004.061319 1  001       Rx   d 2 02 01 
   2004.061334 1  002       Rx   d 6 02 01 00 42 00 00 
   2004.062276 1  001       Rx   d 8 05 01 E3 A0 10 04 E3 A0 
   2004.063252 1  001       Rx   d 8 05 01 C0 01 E5 F2 00 18 
   2004.063299 1  001       Rx   d 8 05 01 E2 50 00 01 03 8C 
   2004.063325 1  001       Rx   d 8 05 01 C0 02 0A 00 00 07 
   2004.063346 1  001       Rx   d 8 05 01 E2 50 00 01 0A 00 
   2004.064375 1  001       Rx   d 8 05 01 00 03 E2 50 00 01 
   2004.064421 1  001       Rx   d 8 05 01 1A 00 00 03 E3 8C 
   2004.064445 1  001       Rx   d 8 05 01 C0 FE EA 00 00 01 
   2004.064467 1  001       Rx   d 8 05 01 E3 8C C0 0E EA FF 
   2004.065778 1  001       Rx   d 8 05 01 FF FF E2 51 10 01 
   2004.065820 1  001       Rx   d 8 05 01 15 F2 00 18 1A FF 
   2004.065844 1  001       Rx   d 2 02 01 
   2004.065858 1  002       Rx   d 6 02 01 00 42 00 00 
   2004.066245 1  001       Rx   d 8 05 01 FF F1 E1 8C C4 0C 
   2004.067221 1  001       Rx   d 8 05 01 E1 A0 08 0C E1 2F 
   2004.067285 1  001       Rx   d 8 05 01 FF 1E 00 00 00 00 
   2004.067296 1  001       Rx   d 8 05 01 00 00 00 00 00 00 
   2004.067303 1  001       Rx   d 8 05 01 00 00 E9 2D 40 08 
   2004.068316 1  001       Rx   d 8 05 01 EB 00 13 F9 E5 90 
   2004.068351 1  001       Rx   d 8 05 01 C0 B0 E1 2F FF 3C 
   2004.068360 1  001       Rx   d 8 05 01 E8 BD 80 08 FF FF 
   2004.068368 1  001       Rx   d 8 05 01 E5 00 FF FF FF 00 
   2004.069347 1  001       Rx   d 8 05 01 09 FF FF FF 00 00 
   2004.069387 1  001       Rx   d 8 05 01 00 03 09 31 00 20 
   2004.069396 1  001       Rx   d 2 02 01 
   2004.069402 1  002       Rx   d 6 02 01 00 42 00 00 
   2004.070817 1  001       Rx   d 8 05 01 00 CE FF DC 00 0A 
   2004.070833 1  001       Rx   d 8 05 01 00 00 FF FF FF F0 
   2004.071807 1  001       Rx   d 8 05 01 E3 A0 20 00 E1 52 
   2004.071823 1  001       Rx   d 8 05 01 00 00 0A 00 00 72 
   2004.071831 1  001       Rx   d 8 05 01 E5 1F 20 2C E0 02 
   2004.071839 1  001       Rx   d 8 05 01 20 00 E1 52 00 00 
   2004.072798 1  001       Rx   d 8 05 01 1A 00 00 6E E5 1F 
   2004.072814 1  001       Rx   d 8 05 01 20 40 E5 92 30 58 
   2004.072822 1  001       Rx   d 8 05 01 E3 83 3C 01 E5 82 
   2004.072830 1  001       Rx   d 8 05 01 30 58 E3 A0 30 01 
   2004.073641 1  001       Rx   d 8 05 01 E5 82 30 60 E5 92 
   2004.073662 1  001       Rx   d 2 02 01 
   2004.073668 1  002       Rx   d 6 02 01 00 42 00 00 
   2004.074631 1  001       Rx   d 8 05 01 30 58 E5 1F 20 44 
   2004.074646 1  001       Rx   d 8 05 01 E0 03 30 02 E5 1F 
   2004.075774 1  001       Rx   d 8 05 01 20 64 E5 82 30 58 
   2004.075789 1  001       Rx   d 8 05 01 E5 92 30 58 E3 83 
   2004.075798 1  001       Rx   d 8 05 01 30 0A E5 82 30 58 
   2004.075805 1  001       Rx   d 8 05 01 E1 A0 00 00 E1 A0 
   2004.076615 1  001       Rx   d 8 05 01 00 00 E1 A0 00 00 
   2004.076630 1  001       Rx   d 8 05 01 E1 A0 00 00 E1 A0 
   2004.076639 1  001       Rx   d 8 05 01 00 00 E1 A0 00 00 
   2004.076646 1  001       Rx   d 8 05 01 E1 A0 00 00 E1 A0 
   2004.077611 1  001       Rx   d 8 05 01 00 00 E1 A0 00 00 
   2004.077644 1  001       Rx   d 2 02 01 
   2004.077662 1  002       Rx   d 6 02 01 00 42 00 00 
   2004.078599 1  001       Rx   d 8 05 01 E1 A0 00 00 E1 A0 
   2004.078617 1  001       Rx   d 8 05 01 00 00 E1 A0 00 00 
   2004.079592 1  001       Rx   d 8 05 01 E1 A0 00 00 E1 A0 
   2004.079608 1  001       Rx   d 8 05 01 00 00 E1 A0 00 00 
   2004.079616 1  001       Rx   d 8 05 01 E1 A0 00 00 E1 A0 
   2004.079623 1  001       Rx   d 8 05 01 00 00 E1 A0 00 00 
   2004.080587 1  001       Rx   d 8 05 01 E1 A0 00 00 E1 A0 
   2004.080617 1  001       Rx   d 8 05 01 00 00 E1 A0 00 00 
   2004.080626 1  001       Rx   d 8 05 01 E1 A0 00 00 E1 A0 
   2004.080633 1  001       Rx   d 8 05 01 00 00 E1 A0 00 00 
   2004.081580 1  001       Rx   d 8 05 01 E1 A0 00 00 E1 A0 
   2004.081623 1  001       Rx   d 2 02 01 
   2004.081632 1  002       Rx   d 6 02 01 00 42 00 00 
   2004.082572 1  001       Rx   d 8 05 01 00 00 E1 A0 00 00 
   2004.083559 1  001       Rx   d 8 05 01 E1 A0 00 00 E1 A0 
   2004.083572 1  001       Rx   d 8 05 01 00 00 E1 A0 00 00 
   2004.083580 1  001       Rx   d 8 05 01 E1 A0 00 00 E1 A0 
   2004.083586 1  001       Rx   d 8 05 01 00 00 E5 1F 20 FC 
   2004.084550 1  001       Rx   d 8 05 01 E3 A0 30 03 E5 82 
   2004.084564 1  001       Rx   d 8 05 01 30 80 E5 1F 31 00 
   2004.084572 1  001       Rx   d 8 05 01 E1 53 00 00 0A 00 
   2004.084579 1  001       Rx   d 8 05 01 00 21 E3 51 00 01 
   2004.085604 1  001       Rx   d 8 05 01 0A 00 00 17 E5 1F 
   2004.085618 1  001       Rx   d 8 05 01 11 10 E1 11 00 00 
   2004.085625 1  001       Rx   d 2 02 01 
   2004.085630 1  002       Rx   d 6 02 01 00 42 00 00 
   2004.086622 1  001       Rx   d 8 05 01 1A 00 00 0F E5 1F 
   2004.086635 1  001       Rx   d 8 05 01 11 14 E1 11 00 00 
   2004.087608 1  001       Rx   d 8 05 01 1A 00 00 07 E5 1F 
   2004.087621 1  001       Rx   d 8 05 01 11 24 E1 11 00 00 
   2004.087630 1  001       Rx   d 8 05 01 0A 00 00 12 E3 A0 
   2004.087637 1  001       Rx   d 8 05 01 30 08 E5 82 30 C4 
   2004.088699 1  001       Rx   d 8 05 01 E0 01 30 00 E5 82 
   2004.088713 1  001       Rx   d 8 05 01 30 C8 EA 00 00 0D 
   2004.088721 1  001       Rx   d 8 05 01 E3 A0 30 04 E5 82 
   2004.088729 1  001       Rx   d 8 05 01 30 C4 E0 01 30 00 
   2004.090006 1  001       Rx   d 8 05 01 E5 82 30 C8 EA 00 
   2004.090038 1  001       Rx   d 2 02 01 
   2004.090052 1  002       Rx   d 6 02 01 00 42 00 00 
   2004.090513 1  001       Rx   d 8 05 01 00 08 E3 A0 30 02 
   2004.091657 1  001       Rx   d 8 05 01 E5 82 30 C4 E0 01 
   2004.091676 1  001       Rx   d 8 05 01 30 00 E5 82 30 C8 
   2004.091687 1  001       Rx   d 8 05 01 EA 00 00 03 E3 A0 
   2004.091694 1  001       Rx   d 8 05 01 30 04 E5 82 30 C4 
   2004.092983 1  001       Rx   d 8 05 01 E3 A0 30 01 E5 82 
   2004.093012 1  001       Rx   d 8 05 01 30 C8 E3 A0 30 00 
   2004.093020 1  001       Rx   d 8 05 01 E5 82 30 CC E5 82 
   2004.093027 1  001       Rx   d 8 05 01 30 88 EA 00 00 03 
   2004.093979 1  001       Rx   d 8 05 01 E3 A0 30 0E E5 82 
   2004.094013 1  001       Rx   d 8 05 01 30 C4 E3 A0 30 01 
   2004.094021 1  001       Rx   d 2 02 01 
   2004.094036 1  002       Rx   d 6 02 01 00 42 00 00 
   2004.095218 1  001       Rx   d 8 05 01 E5 82 30 88 E3 A0 
   2004.095960 1  001       Rx   d 8 05 01 30 03 E5 82 30 C0 
   2004.095988 1  001       Rx   d 8 05 01 E3 A0 30 14 E5 82 
   2004.095996 1  001       Rx   d 8 05 01 30 64 E5 1F 31 A4 
   2004.096003 1  001       Rx   d 8 05 01 E5 1F 21 BC E5 92 
   2004.096970 1  001       Rx   d 8 05 01 10 68 E3 11 00 01 
   2004.097004 1  001       Rx   d 8 05 01 1A 00 00 02 E2 43 
   2004.097012 1  001       Rx   d 8 05 01 30 01 E3 53 00 00 
   2004.097018 1  001       Rx   d 8 05 01 1A FF FF F9 E5 1F 
   2004.097970 1  001       Rx   d 8 05 01 21 DC E5 92 10 90 
   2004.097984 1  001       Rx   d 8 05 01 E3 11 00 01 1A 00 
   2004.097992 1  001       Rx   d 2 02 01 
   2004.097997 1  002       Rx   d 6 02 01 00 42 00 00 
   2004.098934 1  001       Rx   d 8 05 01 00 06 E5 92 30 94 
   2004.098948 1  001       Rx   d 8 05 01 E3 13 00 01 1A 00 
   2004.099925 1  001       Rx   d 8 05 01 00 03 E3 A0 00 00 
   2004.099953 1  001       Rx   d 8 05 01 EA 00 00 02 E3 06 
   2004.099961 1  001       Rx   d 8 05 01 00 11 EA 00 00 00 
   2004.099968 1  001       Rx   d 8 05 01 E3 06 00 13 E3 A0 
   2004.100920 1  001       Rx   d 8 05 01 30 00 E5 82 30 80 
   2004.100948 1  001       Rx   d 8 05 01 E5 1F 22 10 E5 92 
   2004.100956 1  001       Rx   d 8 05 01 30 58 E5 1F 12 00 
   2004.100963 1  001       Rx   d 8 05 01 E0 03 30 01 E5 82 
   2004.101915 1  001       Rx   d 8 05 01 30 58 E5 92 30 58 
   2004.101948 1  001       Rx   d 2 02 01 
   2004.101954 1  002       Rx   d 6 02 01 00 42 00 00 
   2004.103628 1  001       Rx   d 8 05 01 E3 83 30 05 E5 82 
   2004.103680 1  001       Rx   d 8 05 01 30 58 E5 92 30 58 
   2004.103893 1  001       Rx   d 8 05 01 E5 1F 12 1C E0 03 
   2004.103905 1  001       Rx   d 8 05 01 30 01 E5 82 30 58 
   2004.103912 1  001       Rx   d 8 05 01 E5 92 30 58 E3 83 
   2004.103919 1  001       Rx   d 8 05 01 30 0A E5 82 30 58 
   2004.104887 1  001       Rx   d 8 05 01 E5 1F 22 4C E5 92 
   2004.104916 1  001       Rx   d 8 05 01 30 58 E5 1F 12 3C 
   2004.104924 1  001       Rx   d 8 05 01 E0 03 30 01 E5 82 
   2004.104931 1  001       Rx   d 8 05 01 30 58 E5 92 30 58 
   2004.105881 1  001       Rx   d 8 05 01 E3 83 30 05 E5 82 
   2004.105912 1  001       Rx   d 2 02 01 
   2004.105918 1  002       Rx   d 6 02 01 00 42 00 00 
   2004.107621 1  001       Rx   d 8 05 01 30 58 E1 2F FF 1E 
   2004.107652 1  001       Rx   d 8 05 01 E3 A0 10 00 EA FF 
   2004.107863 1  001       Rx   d 8 05 01 FF 6A 00 00 00 00 
   2004.107877 1  001       Rx   d 8 05 01 00 00 00 00 E9 2D 
   2004.107884 1  001       Rx   d 8 05 01 40 08 EB 00 13 55 
   2004.107891 1  001       Rx   d 8 05 01 E5 90 C0 B4 E1 2F 
   2004.109583 1  001       Rx   d 8 05 01 FF 3C E8 BD 80 08 
   2004.109612 1  001       Rx   d 8 05 01 00 00 00 00 00 00 
   2004.109620 1  001       Rx   d 8 05 01 00 00 00 00 00 00 
   2004.109625 1  001       Rx   d 8 05 01 E9 2D 40 08 E5 D1 
   2004.110383 1  001       Rx   d 8 05 01 C0 00 E5 D1 E0 01 
   2004.110416 1  001       Rx   d 2 02 01 
   2004.110422 1  002       Rx   d 6 02 01 00 42 00 00 
   2004.110844 1  001       Rx   d 8 05 01 E5 D1 30 02 E1 8E 
   2004.112334 1  001       Rx   d 8 05 01 C1 0C E5 D1 E0 03 
   2004.112356 1  001       Rx   d 8 05 01 E1 83 C0 8C E5 D1 
   2004.112364 1  001       Rx   d 8 05 01 30 04 E1 8E C0 8C 
   2004.112372 1  001       Rx   d 8 05 01 E5 D1 E0 05 E1 83 
   2004.113321 1  001       Rx   d 8 05 01 C1 0C E5 D1 30 06 
   2004.113341 1  001       Rx   d 8 05 01 E1 8E C0 8C E5 D1 
   2004.113349 1  001       Rx   d 8 05 01 E0 07 E1 83 C0 8C 
   2004.113356 1  001       Rx   d 8 05 01 E5 D1 10 08 E0 80 
   2004.114313 1  001       Rx   d 8 05 01 01 02 E1 8E C4 0C 
   2004.114331 1  001       Rx   d 8 05 01 E1 81 C4 0C E5 80 
   2004.114342 1  001       Rx   d 2 02 01 
   2004.114349 1  002       Rx   d 6 02 01 00 42 00 00 
   2004.115473 1  001       Rx   d 8 05 01 C0 50 E8 BD 80 08 
   2004.115487 1  001       Rx   d 8 05 01 00 00 00 00 00 00 
   2004.116463 1  001       Rx   d 8 05 01 00 00 00 00 00 00 
   2004.116477 1  001       Rx   d 8 05 01 E9 2D 4F F0 E1 B0 
   2004.116484 1  001       Rx   d 8 05 01 80 00 E2 4D D0 0C 
   2004.116492 1  001       Rx   d 8 05 01 03 09 00 01 0A 00 
   2004.117457 1  001       Rx   d 8 05 01 00 7E EB FF FF 1D 
   2004.117471 1  001       Rx   d 8 05 01 E5 D8 C0 00 E3 07 
   2004.117479 1  001       Rx   d 8 05 01 21 78 E1 A0 11 8C 
   2004.117486 1  001       Rx   d 8 05 01 E3 40 28 00 E0 81 
   2004.118284 1  001       Rx   d 8 05 01 C1 0C E0 82 10 0C 
   2004.118299 1  001       Rx   d 2 02 01 
   2004.118304 1  002       Rx   d 6 02 01 00 42 00 00 
   2004.119441 1  001       Rx   d 8 05 01 E5 98 C0 04 E5 91 
   2004.119455 1  001       Rx   d 8 05 01 70 00 E5 8D C0 04 
   2004.120431 1  001       Rx   d 8 05 01 E5 D8 60 01 E1 A0 
   2004.120446 1  001       Rx   d 8 05 01 90 00 E5 91 A0 08 
   2004.120453 1  001       Rx   d 8 05 01 EB FF FF 28 E3 A0 
   2004.120461 1  001       Rx   d 8 05 01 C0 00 E3 A0 50 00 
   2004.121425 1  001       Rx   d 8 05 01 E5 87 C0 00 E1 A0 
   2004.121439 1  001       Rx   d 8 05 01 40 05 E5 D8 C0 08 
   2004.121447 1  001       Rx   d 8 05 01 E3 5C 00 00 0A 00 
   2004.121453 1  001       Rx   d 8 05 01 00 05 E3 56 00 00 
   2004.122248 1  001       Rx   d 8 05 01 0A 00 00 03 E1 A0 
   2004.122267 1  001       Rx   d 2 02 01 
   2004.122272 1  002       Rx   d 6 02 01 00 42 00 00 
   2004.123238 1  001       Rx   d 8 05 01 00 0A EB FF FF BD 
   2004.123251 1  001       Rx   d 8 05 01 E1 B0 40 00 13 09 
   2004.124230 1  001       Rx   d 8 05 01 40 03 E3 A0 C0 01 
   2004.124244 1  001       Rx   d 8 05 01 E5 87 C0 00 E5 D8 
   2004.124252 1  001       Rx   d 8 05 01 C0 0E E1 89 C0 0C 
   2004.124259 1  001       Rx   d 8 05 01 E3 8C CC 0E E5 87 
   2004.125224 1  001       Rx   d 8 05 01 C0 14 EB FF FF B8 
   2004.125252 1  001       Rx   d 8 05 01 E3 A0 C0 03 E5 87 
   2004.125260 1  001       Rx   d 8 05 01 C0 04 E5 D8 C0 0A 
   2004.125267 1  001       Rx   d 8 05 01 E5 D8 00 0B E5 D8 
   2004.126219 1  001       Rx   d 8 05 01 10 0C E1 80 C4 0C 
   2004.126287 1  001       Rx   d 2 02 01 
   2004.126293 1  002       Rx   d 6 02 01 00 42 00 00 
   2004.127706 1  001       Rx   d 8 05 01 E2 88 B0 24 E5 D8 
   2004.127735 1  001       Rx   d 8 05 01 E0 0D E1 81 C4 0C 
   2004.128200 1  001       Rx   d 8 05 01 E2 88 A0 10 E3 A0 
   2004.128217 1  001       Rx   d 8 05 01 90 04 E1 8E C4 0C 
   2004.128225 1  001       Rx   d 8 05 01 E5 87 C0 48 E1 A0 
   2004.128232 1  001       Rx   d 8 05 01 20 05 01 A0 00 00 
   2004.129893 1  001       Rx   d 8 05 01 01 A0 00 00 01 A0 
   2004.129906 1  001       Rx   d 8 05 01 00 00 E1 A0 00 07 
   2004.129913 1  001       Rx   d 8 05 01 E1 A0 10 0A EB FF 
   2004.129920 1  001       Rx   d 8 05 01 FF AC E4 DB 00 18 
   2004.130182 1  001       Rx   d 8 05 01 E1 A0 C1 82 E2 00 
   2004.130194 1  001       Rx   d 2 02 01 
   2004.130199 1  002       Rx   d 6 02 01 00 42 00 00 
   2004.131831 1  001       Rx   d 8 05 01 00 03 E2 59 90 01 
   2004.131844 1  001       Rx   d 8 05 01 E2 82 20 01 E2 8A 
   2004.132819 1  001       Rx   d 8 05 01 A0 18 E1 85 5C 10 
   2004.132831 1  001       Rx   d 8 05 01 1A FF FF F4 E5 87 
   2004.132838 1  001       Rx   d 8 05 01 50 6C E5 98 C0 70 
   2004.132844 1  001       Rx   d 8 05 01 E5 87 C0 08 E5 98 
   2004.133810 1  001       Rx   d 8 05 01 C0 74 E3 56 00 00 
   2004.133821 1  001       Rx   d 8 05 01 E5 87 C0 0C 0A 00 
   2004.133828 1  001       Rx   d 8 05 01 00 35 E3 54 00 00 
   2004.133834 1  001       Rx   d 8 05 01 05 98 C0 80 1A 00 
   2004.134648 1  001       Rx   d 8 05 01 00 32 E3 5C 00 00 
   2004.134667 1  001       Rx   d 2 02 01 
   2004.134673 1  002       Rx   d 6 02 01 00 42 00 00 
   2004.135792 1  001       Rx   d 8 05 01 03 09 40 01 0A 00 
   2004.135804 1  001       Rx   d 8 05 01 00 2F E3 A0 00 01 
   2004.136788 1  001       Rx   d 8 05 01 E5 87 00 70 E1 2F 
   2004.136799 1  001       Rx   d 8 05 01 FF 3C E5 97 C0 10 
   2004.136806 1  001       Rx   d 8 05 01 E3 1C 04 01 05 D8 
   2004.136813 1  001       Rx   d 8 05 01 C0 09 1A 00 00 24 
   2004.137778 1  001       Rx   d 8 05 01 E2 87 10 98 E3 5C 
   2004.137789 1  001       Rx   d 8 05 01 00 00 E5 9D C0 04 
   2004.137796 1  001       Rx   d 8 05 01 13 A0 00 0A 03 A0 
   2004.137802 1  001       Rx   d 8 05 01 00 05 E5 87 01 20 
   2004.138613 1  001       Rx   d 8 05 01 E3 A0 00 00 E5 DC 
   2004.138624 1  001       Rx   d 2 02 01 
   2004.138629 1  002       Rx   d 6 02 01 00 42 00 00 
   2004.139760 1  001       Rx   d 8 05 01 20 00 E5 DC 30 01 
   2004.139771 1  001       Rx   d 8 05 01 E5 DC E0 02 E5 DC 
   2004.140737 1  001       Rx   d 8 05 01 B0 03 E1 83 20 82 
   2004.140749 1  001       Rx   d 8 05 01 E2 56 60 01 E1 8E 
   2004.140757 1  001       Rx   d 8 05 01 24 82 E1 8B 22 02 
   2004.140764 1  001       Rx   d 8 05 01 E1 80 24 02 E1 A0 
   2004.141726 1  001       Rx   d 8 05 01 24 02 E4 81 20 04 
   2004.141738 1  001       Rx   d 8 05 01 E5 DC 20 04 E2 8C 
   2004.141746 1  001       Rx   d 8 05 01 C0 05 E0 82 00 00 
   2004.141752 1  001       Rx   d 8 05 01 15 DC 20 00 E6 EF 
   2004.142582 1  001       Rx   d 8 05 01 00 70 15 DC 30 01 
   2004.142602 1  001       Rx   d 2 02 01 
   2004.142609 1  002       Rx   d 6 02 01 00 42 00 00 
   2004.143597 1  001       Rx   d 8 05 01 1A FF FF EF E1 A0 
   2004.143609 1  001       Rx   d 8 05 01 C4 00 E2 4C CC 01 
   2004.144705 1  001       Rx   d 8 05 01 E5 87 C0 94 E5 98 
   2004.144716 1  001       Rx   d 8 05 01 C0 78 E5 87 C0 74 
   2004.144724 1  001       Rx   d 8 05 01 E5 98 C0 7C E5 87 
   2004.144731 1  001       Rx   d 8 05 01 C0 7C E5 97 C1 2C 
   2004.145690 1  001       Rx   d 8 05 01 E5 8D C0 00 E5 97 
   2004.145703 1  001       Rx   d 8 05 01 C1 28 E5 8D C0 00 
   2004.145711 1  001       Rx   d 8 05 01 EA 00 00 03 E5 97 
   2004.145719 1  001       Rx   d 8 05 01 C0 04 E3 09 40 0E 
   2004.146572 1  001       Rx   d 8 05 01 E1 A0 00 04 EA 00 
   2004.146590 1  001       Rx   d 2 02 01 
   2004.146596 1  002       Rx   d 6 02 01 00 42 00 00 
   2004.147542 1  001       Rx   d 8 05 01 00 01 E5 97 C0 04 
   2004.147556 1  001       Rx   d 8 05 01 E1 A0 00 04 E3 8C 
   2004.148533 1  001       Rx   d 8 05 01 C4 01 E5 87 C0 04 
   2004.148546 1  001       Rx   d 8 05 01 E2 8D D0 0C E8 BD 
   2004.148554 1  001       Rx   d 8 05 01 8F F0 00 00 00 00 
   2004.148560 1  001       Rx   d 8 05 01 00 00 00 00 E1 A0 
   2004.149525 1  001       Rx   d 8 05 01 C0 00 E3 A0 00 00 
   2004.149537 1  001       Rx   d 8 05 01 E5 9C 10 04 E3 51 
   2004.149545 1  001       Rx   d 8 05 01 00 00 15 DC C0 0D 
   2004.149552 1  001       Rx   d 8 05 01 0A 00 00 0D E2 41 
   2004.150518 1  001       Rx   d 8 05 01 10 08 E3 5C 00 00 
   2004.150532 1  001       Rx   d 2 02 01 
   2004.150538 1  002       Rx   d 6 02 01 00 42 00 00 
   2004.151510 1  001       Rx   d 8 05 01 01 2F FF 1E E5 B1 
   2004.151523 1  001       Rx   d 8 05 01 20 08 01 A0 00 00 
   2004.153121 1  001       Rx   d 8 05 01 01 A0 00 00 E3 52 
   2004.153135 1  001       Rx   d 8 05 01 00 00 15 92 20 00 
   2004.153143 1  001       Rx   d 8 05 01 13 52 00 00 03 02 
   2004.153152 1  001       Rx   d 8 05 01 00 60 E2 5C C0 01 
   2004.153494 1  001       Rx   d 8 05 01 15 B1 20 08 1A FF 
   2004.153508 1  001       Rx   d 8 05 01 FF F8 E1 2F FF 1E 
   2004.153517 1  001       Rx   d 8 05 01 E5 DC C0 0D E3 5C 
   2004.153526 1  001       Rx   d 8 05 01 00 00 13 02 00 70 
   2004.154490 1  001       Rx   d 8 05 01 E1 2F FF 1E E1 A0 
   2004.154502 1  001       Rx   d 2 02 01 
   2004.154509 1  002       Rx   d 6 02 01 00 42 00 00 
   2004.155479 1  001       Rx   d 8 05 01 C0 00 E3 A0 00 00 
   2004.155495 1  001       Rx   d 8 05 01 E5 9C 10 08 E3 51 
   2004.157078 1  001       Rx   d 8 05 01 00 00 15 DC C0 0E 
   2004.157093 1  001       Rx   d 8 05 01 0A 00 00 0D E2 41 
   2004.157103 1  001       Rx   d 8 05 01 10 08 E3 5C 00 00 
   2004.157112 1  001       Rx   d 8 05 01 01 2F FF 1E E5 B1 
   2004.158074 1  001       Rx   d 8 05 01 20 08 01 A0 00 00 
   2004.158092 1  001       Rx   d 8 05 01 01 A0 00 00 E3 52 
   2004.158105 1  001       Rx   d 8 05 01 00 00 15 92 20 00 
   2004.158117 1  001       Rx   d 8 05 01 13 52 00 00 03 02 
   2004.158458 1  001       Rx   d 8 05 01 00 60 E2 5C C0 01 
   2004.158476 1  001       Rx   d 2 02 01 
   2004.158483 1  002       Rx   d 6 02 01 00 42 00 00 
   2004.159449 1  001       Rx   d 8 05 01 15 B1 20 08 1A FF 
   2004.159466 1  001       Rx   d 8 05 01 FF F8 E1 2F FF 1E 
   2004.160561 1  001       Rx   d 8 05 01 E5 DC C0 0E E3 5C 
   2004.160581 1  001       Rx   d 8 05 01 00 00 13 02 00 70 
   2004.160597 1  001       Rx   d 8 05 01 E1 2F FF 1E E9 2D 
   2004.160608 1  001       Rx   d 8 05 01 40 08 E1 B0 30 00 
   2004.162034 1  001       Rx   d 8 05 01 03 02 00 50 0A 00 
   2004.162051 1  001       Rx   d 8 05 01 00 05 EB FF FF CA 
   2004.162062 1  001       Rx   d 8 05 01 E3 50 00 00 18 BD 
   2004.162073 1  001       Rx   d 8 05 01 80 08 E1 A0 00 03 
   2004.162928 1  001       Rx   d 8 05 01 EB FF FF DE E8 BD 
   2004.162949 1  001       Rx   d 2 02 01 
   2004.162958 1  002       Rx   d 6 02 01 00 42 00 00 
   2004.163914 1  001       Rx   d 8 05 01 80 08 E8 BD 80 08 
   2004.163934 1  001       Rx   d 8 05 01 00 00 00 00 E3 71 
   2004.165004 1  001       Rx   d 8 05 01 00 01 01 2F FF 1E 
   2004.165022 1  001       Rx   d 8 05 01 E3 A0 C0 01 E3 C0 
   2004.165034 1  001       Rx   d 8 05 01 00 FF E3 52 00 00 
   2004.165044 1  001       Rx   d 8 05 01 E1 A0 C1 1C 1A 00 
   2004.165526 1  001       Rx   d 8 05 01 00 08 E5 90 10 00 
   2004.165545 1  001       Rx   d 8 05 01 E0 0C 10 01 E1 5C 
   2004.165558 1  001       Rx   d 8 05 01 00 01 15 90 10 00 
   2004.165569 1  001       Rx   d 8 05 01 01 2F FF 1E E1 8C 
   2004.166891 1  001       Rx   d 8 05 01 C0 01 E5 80 C0 00 
   2004.166914 1  001       Rx   d 2 02 01 
   2004.166924 1  002       Rx   d 6 02 01 00 42 00 00 
   2004.167971 1  001       Rx   d 8 05 01 E1 2F FF 1E 01 A0 
   2004.167992 1  001       Rx   d 8 05 01 00 00 E5 90 10 00 
   2004.168963 1  001       Rx   d 8 05 01 E0 0C 10 01 E1 5C 
   2004.168982 1  001       Rx   d 8 05 01 00 01 05 90 10 00 
   2004.168994 1  001       Rx   d 8 05 01 01 C1 C0 0C 05 80 
   2004.169006 1  001       Rx   d 8 05 01 C0 00 E1 2F FF 1E 
   2004.169867 1  001       Rx   d 8 05 01 00 00 00 00 E9 2D 
   2004.169885 1  001       Rx   d 8 05 01 40 08 E3 51 00 00 
   2004.169897 1  001       Rx   d 8 05 01 15 91 E0 00 E1 E0 
   2004.169908 1  001       Rx   d 8 05 01 C0 02 10 0C E0 0E 
   2004.170862 1  001       Rx   d 8 05 01 15 81 E0 00 E5 DD 
   2004.170885 1  001       Rx   d 2 02 01 
   2004.170895 1  002       Rx   d 6 02 01 00 42 00 00 
   2004.171855 1  001       Rx   d 8 05 01 10 0B E3 51 00 00 
   2004.171888 1  001       Rx   d 8 05 01 05 80 20 10 15 80 
   2004.173436 1  001       Rx   d 8 05 01 20 0C E2 53 10 01 
   2004.173463 1  001       Rx   d 8 05 01 05 90 10 1C 0A 00 
   2004.173482 1  001       Rx   d 8 05 01 00 3E E2 51 10 01 
   2004.173500 1  001       Rx   d 8 05 01 05 90 10 1C 0A 00 
   2004.173838 1  001       Rx   d 8 05 01 00 2F E2 51 10 01 
   2004.173861 1  001       Rx   d 8 05 01 05 90 10 1C 0A 00 
   2004.173872 1  001       Rx   d 8 05 01 00 20 E2 51 10 01 
   2004.173884 1  001       Rx   d 8 05 01 15 90 10 1C 0A 00 
   2004.174830 1  001       Rx   d 8 05 01 00 0D E0 0C 10 01 
   2004.174853 1  001       Rx   d 2 02 01 
   2004.174863 1  002       Rx   d 6 02 01 00 42 00 00 
   2004.175811 1  001       Rx   d 8 05 01 E5 80 10 1C E5 90 
   2004.175822 1  001       Rx   d 8 05 01 10 18 E1 82 10 01 
   2004.176803 1  001       Rx   d 8 05 01 E5 80 10 18 E5 90 
   2004.176813 1  001       Rx   d 8 05 01 10 14 E0 0C 10 01 
   2004.176819 1  001       Rx   d 8 05 01 E5 80 10 14 E5 90 
   2004.176824 1  001       Rx   d 8 05 01 10 00 E0 0C C0 01 
   2004.178462 1  001       Rx   d 8 05 01 E5 80 C0 00 E8 BD 
   2004.178472 1  001       Rx   d 8 05 01 80 08 01 A0 00 00 
   2004.178480 1  001       Rx   d 8 05 01 01 A0 00 00 E5 90 
   2004.178486 1  001       Rx   d 8 05 01 10 1C E0 0C C0 01 
   2004.179289 1  001       Rx   d 8 05 01 E5 80 C0 1C E5 90 
   2004.179299 1  001       Rx   d 2 02 01 
   2004.179303 1  002       Rx   d 6 02 01 00 42 00 00 
   2004.179780 1  001       Rx   d 8 05 01 C0 18 E1 82 C0 0C 
   2004.181447 1  001       Rx   d 8 05 01 E5 80 C0 18 E5 90 
   2004.181459 1  001       Rx   d 8 05 01 C0 14 E1 82 C0 0C 
   2004.181465 1  001       Rx   d 8 05 01 E5 80 C0 14 E5 90 
   2004.181471 1  001       Rx   d 8 05 01 C0 00 E1 82 C0 0C 
   2004.182430 1  001       Rx   d 8 05 01 E5 80 C0 00 E8 BD 
   2004.182440 1  001       Rx   d 8 05 01 80 08 01 A0 00 00 
   2004.182447 1  001       Rx   d 8 05 01 01 A0 00 00 01 A0 
   2004.182453 1  001       Rx   d 8 05 01 00 00 E0 0C 10 01 
   2004.183252 1  001       Rx   d 8 05 01 E5 80 10 1C E5 90 
   2004.183266 1  001       Rx   d 8 05 01 10 18 E1 82 10 01 
   2004.183273 1  001       Rx   d 2 02 01 
   2004.183277 1  002       Rx   d 6 02 01 00 42 00 00 
   2004.184416 1  001       Rx   d 8 05 01 E5 80 10 18 E5 90 
   2004.184426 1  001       Rx   d 8 05 01 10 14 E0 0C C0 01 
   2004.185387 1  001       Rx   d 8 05 01 E5 80 C0 14 E5 90 
   2004.185398 1  001       Rx   d 8 05 01 C0 00 E1 82 C0 0C 
   2004.185405 1  001       Rx   d 8 05 01 E5 80 C0 00 E8 BD 
   2004.185411 1  001       Rx   d 8 05 01 80 08 E0 0C 10 01 
   2004.186384 1  001       Rx   d 8 05 01 E5 80 10 1C E5 90 
   2004.186395 1  001       Rx   d 8 05 01 10 18 E0 0C 10 01 
   2004.186402 1  001       Rx   d 8 05 01 E5 80 10 18 E5 90 
   2004.186408 1  001       Rx   d 8 05 01 10 14 E0 0C 10 01 
   2004.187220 1  001       Rx   d 8 05 01 E5 80 10 14 E5 90 
   2004.187234 1  001       Rx   d 2 02 01 
   2004.187240 1  002       Rx   d 6 02 01 00 42 00 00 
   2004.188212 1  001       Rx   d 8 05 01 10 00 E0 0C C0 01 
   2004.188223 1  001       Rx   d 8 05 01 E5 80 C0 00 E8 BD 
   2004.189205 1  001       Rx   d 8 05 01 80 08 E1 82 10 01 
   2004.189219 1  001       Rx   d 8 05 01 E5 80 10 1C E5 90 
   2004.189226 1  001       Rx   d 8 05 01 10 18 E0 0C 10 01 
   2004.189233 1  001       Rx   d 8 05 01 E5 80 10 18 E5 90 
   2004.190196 1  001       Rx   d 8 05 01 10 14 E0 0C 10 01 
   2004.190207 1  001       Rx   d 8 05 01 E5 80 10 14 E5 90 
   2004.190213 1  001       Rx   d 8 05 01 10 00 E0 0C C0 01 
   2004.190219 1  001       Rx   d 8 05 01 E5 80 C0 00 E8 BD 
   2004.191188 1  001       Rx   d 8 05 01 80 08 E9 2D 40 10 
   2004.191202 1  001       Rx   d 2 02 01 
   2004.191207 1  002       Rx   d 6 02 01 00 42 00 00 
   2004.192180 1  001       Rx   d 8 05 01 E1 B0 40 00 03 02 
   2004.192190 1  001       Rx   d 8 05 01 00 50 E2 4D D0 08 
   2004.193172 1  001       Rx   d 8 05 01 0A 00 00 11 E5 94 
   2004.193182 1  001       Rx   d 8 05 01 C0 00 E3 5C 00 00 
   2004.193189 1  001       Rx   d 8 05 01 03 02 00 60 0A 00 
   2004.193196 1  001       Rx   d 8 05 01 00 0D EB FF FD FD 
   2004.194164 1  001       Rx   d 8 05 01 E5 94 00 00 E1 D4 
   2004.194174 1  001       Rx   d 8 05 01 10 D8 E5 D4 20 09 
   2004.194182 1  001       Rx   d 8 05 01 EB FF FF 81 E5 D4 
   2004.194188 1  001       Rx   d 8 05 01 C0 11 E5 8D C0 00 
   2004.195654 1  001       Rx   d 8 05 01 E5 D4 30 10 E5 94 
   2004.195671 1  001       Rx   d 2 02 01 
   2004.195676 1  002       Rx   d 6 02 01 00 42 00 00 
   2004.196148 1  001       Rx   d 8 05 01 00 00 E5 94 10 04 
   2004.197141 1  001       Rx   d 8 05 01 E5 94 20 0C EB FF 
   2004.197152 1  001       Rx   d 8 05 01 FF 92 EB FF FE 95 
   2004.197160 1  001       Rx   d 8 05 01 E3 A0 00 00 E2 8D 
   2004.197167 1  001       Rx   d 8 05 01 D0 08 E8 BD 80 10 
   2004.198260 1  001       Rx   d 8 05 01 00 00 00 00 00 00 
   2004.198272 1  001       Rx   d 8 05 01 00 00 00 00 00 00 
   2004.198278 1  001       Rx   d 8 05 01 E9 2D 47 F0 E2 4D 
   2004.198286 1  001       Rx   d 8 05 01 D0 18 E1 A0 70 00 
   2004.199621 1  001       Rx   d 8 05 01 EB FF FF 63 E1 B0 
   2004.199636 1  001       Rx   d 8 05 01 80 00 05 D7 C0 0D 
   2004.199644 1  001       Rx   d 2 02 01 
   2004.199649 1  002       Rx   d 6 02 01 00 42 00 00 
   2004.200116 1  001       Rx   d 8 05 01 1A 00 00 69 E5 97 
   2004.201740 1  001       Rx   d 8 05 01 40 04 E3 5C 00 00 
   2004.201754 1  001       Rx   d 8 05 01 0A 00 00 30 E3 A0 
   2004.201762 1  001       Rx   d 8 05 01 50 01 E3 A0 90 00 
   2004.201770 1  001       Rx   d 8 05 01 E5 D4 C0 05 E1 A0 
   2004.202252 1  001       Rx   d 8 05 01 60 05 E3 A0 00 00 
   2004.202264 1  001       Rx   d 8 05 01 01 A0 00 00 E3 5C 
   2004.202272 1  001       Rx   d 8 05 01 00 00 0A 00 00 10 
   2004.202280 1  001       Rx   d 8 05 01 E3 5C 00 01 85 D4 
   2004.203245 1  001       Rx   d 8 05 01 A0 04 E1 A0 20 AC 
   2004.203258 1  001       Rx   d 8 05 01 E1 A0 10 00 9A 00 
   2004.203266 1  001       Rx   d 2 02 01 
   2004.203272 1  002       Rx   d 6 02 01 00 42 00 00 
   2004.204094 1  001       Rx   d 8 05 01 00 07 01 A0 00 00 
   2004.205599 1  001       Rx   d 8 05 01 E0 81 30 0A E2 83 
   2004.205613 1  001       Rx   d 8 05 01 E0 01 E2 52 20 01 
   2004.205621 1  001       Rx   d 8 05 01 E1 80 0E 15 E1 80 
   2004.205629 1  001       Rx   d 8 05 01 03 16 E2 81 10 02 
   2004.205637 1  001       Rx   d 8 05 01 1A FF FF F8 E1 B0 
   2004.206697 1  001       Rx   d 8 05 01 CF 8C 15 D4 C0 04 
   2004.206709 1  001       Rx   d 8 05 01 10 81 C0 0C 11 80 
   2004.206717 1  001       Rx   d 8 05 01 0C 16 E5 94 C0 00 
   2004.206725 1  001       Rx   d 8 05 01 E5 D4 20 06 E5 D4 
   2004.207562 1  001       Rx   d 8 05 01 10 07 E5 8D 00 0C 
   2004.207577 1  001       Rx   d 2 02 01 
   2004.207582 1  002       Rx   d 6 02 01 00 42 00 00 
   2004.208682 1  001       Rx   d 8 05 01 E1 DC E0 D8 E5 9C 
   2004.208694 1  001       Rx   d 8 05 01 A0 04 E5 DC 30 09 
   2004.209678 1  001       Rx   d 8 05 01 E5 CD 20 10 E5 CD 
   2004.209691 1  001       Rx   d 8 05 01 10 11 E5 CD E0 08 
   2004.209700 1  001       Rx   d 8 05 01 E5 9C C0 00 E5 8D 
   2004.209708 1  001       Rx   d 8 05 01 C0 00 E5 8D A0 04 
   2004.210670 1  001       Rx   d 8 05 01 E1 A0 00 0D E5 CD 
   2004.210683 1  001       Rx   d 8 05 01 30 09 EB FF FF B0 
   2004.210692 1  001       Rx   d 8 05 01 E5 D7 C0 0D E2 89 
   2004.210700 1  001       Rx   d 8 05 01 00 01 E2 84 40 08 
   2004.211526 1  001       Rx   d 8 05 01 E6 EF 90 70 E1 59 
   2004.211545 1  001       Rx   d 2 02 01 
   2004.211551 1  002       Rx   d 6 02 01 00 42 00 00 
   2004.212517 1  001       Rx   d 8 05 01 00 0C B5 D4 C0 05 
   2004.212530 1  001       Rx   d 8 05 01 B3 A0 00 00 BA FF 
   2004.213512 1  001       Rx   d 8 05 01 FF D4 E5 D7 C0 0E 
   2004.213526 1  001       Rx   d 8 05 01 E5 97 40 08 E3 5C 
   2004.213534 1  001       Rx   d 8 05 01 00 00 0A 00 00 1C 
   2004.213543 1  001       Rx   d 8 05 01 E3 A0 60 01 E3 A0 
   2004.214502 1  001       Rx   d 8 05 01 50 00 01 A0 00 00 
   2004.214516 1  001       Rx   d 8 05 01 01 A0 00 00 01 A0 
   2004.214524 1  001       Rx   d 8 05 01 00 00 E5 D4 00 04 
   2004.214532 1  001       Rx   d 8 05 01 E5 94 C0 00 E5 D4 
   2004.215494 1  001       Rx   d 8 05 01 10 05 E5 D4 A0 06 
   2004.215508 1  001       Rx   d 2 02 01 
   2004.215514 1  002       Rx   d 6 02 01 00 42 00 00 
   2004.216485 1  001       Rx   d 8 05 01 E1 A0 20 16 E1 DC 
   2004.216499 1  001       Rx   d 8 05 01 E0 D8 E5 9C 90 04 
   2004.217477 1  001       Rx   d 8 05 01 E5 DC 30 09 E5 CD 
   2004.217490 1  001       Rx   d 8 05 01 10 10 E5 CD A0 11 
   2004.217498 1  001       Rx   d 8 05 01 E5 8D 20 0C E5 CD 
   2004.217506 1  001       Rx   d 8 05 01 E0 08 E5 9C C0 00 
   2004.218469 1  001       Rx   d 8 05 01 E5 8D C0 00 E5 8D 
   2004.218482 1  001       Rx   d 8 05 01 90 04 E1 A0 00 0D 
   2004.218490 1  001       Rx   d 8 05 01 E5 CD 30 09 EB FF 
   2004.218497 1  001       Rx   d 8 05 01 FF 8D E2 85 00 01 
   2004.219462 1  001       Rx   d 8 05 01 E5 D7 C0 0E E2 84 
   2004.219477 1  001       Rx   d 2 02 01 
   2004.219485 1  002       Rx   d 6 02 01 00 42 00 00 
   2004.220456 1  001       Rx   d 8 05 01 40 08 E6 FF 50 70 
   2004.220473 1  001       Rx   d 8 05 01 E1 55 00 0C BA FF 
   2004.221446 1  001       Rx   d 8 05 01 FF E7 E3 0B CC 00 
   2004.221460 1  001       Rx   d 8 05 01 E3 4F CF F7 E5 97 
   2004.221469 1  001       Rx   d 8 05 01 00 10 E5 8C 00 08 
   2004.221477 1  001       Rx   d 8 05 01 E5 97 00 14 E5 8C 
   2004.222439 1  001       Rx   d 8 05 01 00 0C E5 97 00 1C 
   2004.222453 1  001       Rx   d 8 05 01 E5 8C 00 18 E5 97 
   2004.222462 1  001       Rx   d 8 05 01 00 1C E1 E0 00 00 
   2004.222470 1  001       Rx   d 8 05 01 E5 8C 00 1C E3 E0 
   2004.223430 1  001       Rx   d 8 05 01 E0 00 E5 8C E0 20 
   2004.223444 1  001       Rx   d 2 02 01 
   2004.223451 1  002       Rx   d 6 02 01 00 42 00 00 
   2004.224422 1  001       Rx   d 8 05 01 E3 08 10 60 E5 97 
   2004.224436 1  001       Rx   d 8 05 01 00 18 E3 40 18 03 
   2004.225414 1  001       Rx   d 8 05 01 E5 8C 00 10 E5 97 
   2004.225428 1  001       Rx   d 8 05 01 00 18 E5 81 70 00 
   2004.225436 1  001       Rx   d 8 05 01 E1 E0 00 00 E5 8C 
   2004.225445 1  001       Rx   d 8 05 01 00 14 E1 A0 00 08 
   2004.226407 1  001       Rx   d 8 05 01 E2 8D D0 18 E8 BD 
   2004.226423 1  001       Rx   d 8 05 01 87 F0 E3 08 C0 60 
   2004.226434 1  001       Rx   d 8 05 01 E3 40 C8 03 E5 9C 
   2004.226442 1  001       Rx   d 8 05 01 C0 00 E3 5C 00 00 
   2004.227396 1  001       Rx   d 8 05 01 03 02 00 01 01 2F 
   2004.227407 1  001       Rx   d 2 02 01 
   2004.227418 1  002       Rx   d 6 02 01 00 42 00 00 
   2004.228389 1  001       Rx   d 8 05 01 FF 1E E5 DC 20 0E 
   2004.228401 1  001       Rx   d 8 05 01 E1 52 00 00 D3 02 
   2004.229510 1  001       Rx   d 8 05 01 00 10 D1 2F FF 1E 
   2004.229544 1  001       Rx   d 8 05 01 E5 9C C0 08 E3 A0 
   2004.229551 1  001       Rx   d 8 05 01 20 01 E3 51 00 00 
   2004.229558 1  001       Rx   d 8 05 01 E0 8C C1 80 E5 DC 
   2004.230870 1  001       Rx   d 8 05 01 00 04 15 9C C0 00 
   2004.230882 1  001       Rx   d 8 05 01 05 9C C0 00 E1 A0 
   2004.230889 1  001       Rx   d 8 05 01 00 12 0A 00 00 03 
   2004.230895 1  001       Rx   d 8 05 01 E5 9C C0 00 E5 8C 
   2004.231864 1  001       Rx   d 8 05 01 00 0C E3 A0 00 00 
   2004.231874 1  001       Rx   d 2 02 01 
   2004.231880 1  002       Rx   d 6 02 01 00 42 00 00 
   2004.232882 1  001       Rx   d 8 05 01 E1 2F FF 1E E5 9C 
   2004.232936 1  001       Rx   d 8 05 01 C0 00 E5 8C 00 10 
   2004.233889 1  001       Rx   d 8 05 01 E3 A0 00 00 E1 2F 
   2004.233899 1  001       Rx   d 8 05 01 FF 1E 00 00 00 00 
   2004.233906 1  001       Rx   d 8 05 01 E3 50 00 00 13 52 
   2004.233912 1  001       Rx   d 8 05 01 00 00 03 09 00 01 
   2004.234875 1  001       Rx   d 8 05 01 01 2F FF 1E E5 D0 
   2004.234886 1  001       Rx   d 8 05 01 C0 01 E1 5C 00 01 
   2004.234892 1  001       Rx   d 8 05 01 DA 00 00 01 E3 51 
   2004.234926 1  001       Rx   d 8 05 01 00 08 BA 00 00 02 
   2004.235827 1  001       Rx   d 8 05 01 E3 09 00 02 E1 2F 
   2004.235837 1  001       Rx   d 2 02 01 
   2004.235842 1  002       Rx   d 6 02 01 00 42 00 00 
   2004.236818 1  001       Rx   d 8 05 01 FF 1E 01 A0 00 00 
   2004.236828 1  001       Rx   d 8 05 01 E5 D0 C0 00 E3 07 
   2004.237810 1  001       Rx   d 8 05 01 21 78 E3 40 28 00 
   2004.237820 1  001       Rx   d 8 05 01 E1 A0 11 8C E0 81 
   2004.237826 1  001       Rx   d 8 05 01 C1 0C E0 82 C0 0C 
   2004.237833 1  001       Rx   d 8 05 01 E5 9C 10 00 E3 51 
   2004.238802 1  001       Rx   d 8 05 01 00 00 15 9C C0 04 
   2004.238812 1  001       Rx   d 8 05 01 0A 00 00 05 E3 5C 
   2004.238818 1  001       Rx   d 8 05 01 00 00 15 90 C0 04 
   2004.238824 1  001       Rx   d 8 05 01 0A 00 00 02 E3 5C 
   2004.239795 1  001       Rx   d 8 05 01 00 00 13 A0 00 00 
   2004.239804 1  001       Rx   d 2 02 01 
   2004.239809 1  002       Rx   d 6 02 01 00 42 00 00 
   2004.240800 1  001       Rx   d 8 05 01 11 2F FF 1E E3 09 
   2004.240810 1  001       Rx   d 8 05 01 00 01 E1 2F FF 1E 
   2004.241778 1  001       Rx   d 8 05 01 00 00 00 00 00 00 
   2004.241787 1  001       Rx   d 8 05 01 00 00 E9 2D 41 F0 
   2004.241793 1  001       Rx   d 8 05 01 E1 A0 60 00 E1 A0 
   2004.241800 1  001       Rx   d 8 05 01 40 02 E1 A0 20 03 
   2004.242771 1  001       Rx   d 8 05 01 E1 A0 70 01 E5 DD 
   2004.242780 1  001       Rx   d 8 05 01 50 1B EB FF FF D8 
   2004.242787 1  001       Rx   d 8 05 01 E3 50 00 00 18 BD 
   2004.242794 1  001       Rx   d 8 05 01 81 F0 E5 96 C0 04 
   2004.243764 1  001       Rx   d 8 05 01 E3 A0 10 05 E3 55 
   2004.243775 1  001       Rx   d 2 02 01 
   2004.243780 1  002       Rx   d 6 02 01 00 42 00 00 
   2004.244754 1  001       Rx   d 8 05 01 00 00 E1 08 C1 87 
   2004.244765 1  001       Rx   d 8 05 01 0A 00 00 04 E5 D8 
   2004.245746 1  001       Rx   d 8 05 01 C0 04 E1 5C 00 05 
   2004.245756 1  001       Rx   d 8 05 01 AA 00 00 02 E3 09 
   2004.245762 1  001       Rx   d 8 05 01 00 10 E8 BD 81 F0 
   2004.245769 1  001       Rx   d 8 05 01 E5 D8 50 04 E5 D6 
   2004.246741 1  001       Rx   d 8 05 01 C0 00 E3 07 21 78 
   2004.246752 1  001       Rx   d 8 05 01 E3 40 28 00 E1 A0 
   2004.246759 1  001       Rx   d 8 05 01 11 8C E0 81 C1 0C 
   2004.246766 1  001       Rx   d 8 05 01 E0 82 20 0C E7 E1 
   2004.247731 1  001       Rx   d 8 05 01 14 54 E1 A0 E2 01 
   2004.247743 1  001       Rx   d 2 02 01 
   2004.247748 1  002       Rx   d 6 02 01 00 42 00 00 
   2004.249252 1  001       Rx   d 8 05 01 E5 92 C0 00 E0 8E 
   2004.249309 1  001       Rx   d 8 05 01 E1 81 E5 92 20 04 
   2004.250245 1  001       Rx   d 8 05 01 E0 86 E0 0E E0 8C 
   2004.250309 1  001       Rx   d 8 05 01 C1 07 E5 DE 70 18 
   2004.250360 1  001       Rx   d 8 05 01 E5 9C C0 98 E3 57 
   2004.250368 1  001       Rx   d 8 05 01 00 10 E7 E6 C4 5C 
   2004.250750 1  001       Rx   d 8 05 01 E0 85 E0 0C E6 EF 
   2004.250762 1  001       Rx   d 8 05 01 E0 7E CA 00 00 3E 
   2004.250768 1  001       Rx   d 8 05 01 E3 A0 50 18 E1 01 
   2004.250775 1  001       Rx   d 8 05 01 65 81 E5 D1 10 18 
   2004.252197 1  001       Rx   d 8 05 01 E3 51 00 08 C5 D8 
   2004.252250 1  001       Rx   d 2 02 01 
   2004.252255 1  002       Rx   d 6 02 01 00 42 00 00 
   2004.253219 1  001       Rx   d 8 05 01 10 04 DA 00 00 38 
   2004.253272 1  001       Rx   d 8 05 01 E0 8C 10 01 E6 EF 
   2004.253307 1  001       Rx   d 8 05 01 50 71 E1 55 00 0C 
   2004.254211 1  001       Rx   d 8 05 01 D8 BD 81 F0 E0 45 
   2004.254253 1  001       Rx   d 8 05 01 10 0C E3 51 00 02 
   2004.254260 1  001       Rx   d 8 05 01 E0 2C 60 05 E2 06 
   2004.254267 1  001       Rx   d 8 05 01 60 01 E1 A0 50 C1 
   2004.255202 1  001       Rx   d 8 05 01 BA 00 00 20 E0 82 
   2004.255232 1  001       Rx   d 8 05 01 11 0C E2 43 30 04 
   2004.255239 1  001       Rx   d 8 05 01 01 A0 00 00 01 A0 
   2004.255245 1  001       Rx   d 8 05 01 00 00 E1 5E 00 0C 
   2004.256163 1  001       Rx   d 2 02 01 
   2004.256175 1  002       Rx   d 6 02 01 00 42 00 00 
   2004.257184 1  001       Rx   d 8 05 01 03 A0 40 00 0A 00 
   2004.257234 1  001       Rx   d 8 05 01 00 03 E0 4C 70 0E 
   2004.258188 1  001       Rx   d 8 05 01 E3 77 00 01 03 C4 
   2004.258198 1  001       Rx   d 8 05 01 4B 06 E6 FF 40 74 
   2004.258206 1  001       Rx   d 8 05 01 E1 C1 40 B0 E2 8C 
   2004.258212 1  001       Rx   d 8 05 01 70 01 E6 EF 70 77 
   2004.259178 1  001       Rx   d 8 05 01 E1 5E 00 07 E1 F3 
   2004.259188 1  001       Rx   d 8 05 01 80 B4 E1 C1 80 B2 
   2004.259194 1  001       Rx   d 8 05 01 03 A0 40 00 E2 81 
   2004.259200 1  001       Rx   d 8 05 01 10 08 0A 00 00 03 
   2004.260134 1  001       Rx   d 8 05 01 E0 47 80 0E E3 78 
   2004.260145 1  001       Rx   d 2 02 01 
   2004.260150 1  002       Rx   d 6 02 01 00 42 00 00 
   2004.261122 1  001       Rx   d 8 05 01 00 01 03 C4 4B 06 
   2004.261133 1  001       Rx   d 8 05 01 E6 FF 40 74 E0 82 
   2004.262114 1  001       Rx   d 8 05 01 71 07 E2 55 50 01 
   2004.262124 1  001       Rx   d 8 05 01 E2 8C C0 02 E1 C7 
   2004.262131 1  001       Rx   d 8 05 01 40 B0 E6 EF C0 7C 
   2004.262137 1  001       Rx   d 8 05 01 E1 D3 80 B2 02 83 
   2004.263107 1  001       Rx   d 8 05 01 30 04 E1 C7 80 B2 
   2004.263117 1  001       Rx   d 8 05 01 1A FF FF E2 E3 56 
   2004.263123 1  001       Rx   d 8 05 01 00 00 D8 BD 81 F0 
   2004.263129 1  001       Rx   d 8 05 01 E1 5E 00 0C 03 A0 
   2004.264099 1  001       Rx   d 8 05 01 10 00 0A 00 00 03 
   2004.264113 1  001       Rx   d 2 02 01 
   2004.264118 1  002       Rx   d 6 02 01 00 42 00 00 
   2004.265090 1  001       Rx   d 8 05 01 E0 4C 10 0E E3 71 
   2004.265101 1  001       Rx   d 8 05 01 00 01 03 C4 4B 06 
   2004.266085 1  001       Rx   d 8 05 01 E6 FF 10 74 E0 82 
   2004.266097 1  001       Rx   d 8 05 01 C1 0C E1 CC 10 B0 
   2004.266104 1  001       Rx   d 8 05 01 E1 D3 10 B0 E1 CC 
   2004.266110 1  001       Rx   d 8 05 01 10 B2 E8 BD 81 F0 
   2004.267076 1  001       Rx   d 8 05 01 E3 09 00 01 E8 BD 
   2004.267086 1  001       Rx   d 8 05 01 81 F0 00 00 00 00 
   2004.267093 1  001       Rx   d 8 05 01 00 00 00 00 00 00 
   2004.267099 1  001       Rx   d 8 05 01 00 00 E9 2D 40 08 
   2004.268068 1  001       Rx   d 8 05 01 E3 A0 C0 00 E5 8D 
   2004.268080 1  001       Rx   d 2 02 01 
   2004.268085 1  002       Rx   d 6 02 01 00 42 00 00 
   2004.269059 1  001       Rx   d 8 05 01 C0 00 EB FF FF 8F 
   2004.269069 1  001       Rx   d 8 05 01 E8 BD 80 08 00 00 
   2004.270051 1  001       Rx   d 8 05 01 00 00 00 00 00 00 
   2004.270060 1  001       Rx   d 8 05 01 00 00 00 00 E3 50 
   2004.270066 1  001       Rx   d 8 05 01 00 00 E9 2D 40 08 
   2004.270073 1  001       Rx   d 8 05 01 0A 00 00 1B E5 D0 
   2004.271044 1  001       Rx   d 8 05 01 C0 01 E1 5C 00 01 
   2004.271055 1  001       Rx   d 8 05 01 DA 00 00 01 E3 51 
   2004.271061 1  001       Rx   d 8 05 01 00 08 BA 00 00 03 
   2004.271067 1  001       Rx   d 8 05 01 E3 09 00 02 E8 BD 
   2004.272035 1  001       Rx   d 8 05 01 80 08 01 A0 00 00 
   2004.272046 1  001       Rx   d 2 02 01 
   2004.272050 1  002       Rx   d 6 02 01 00 42 00 00 
   2004.273027 1  001       Rx   d 8 05 01 01 A0 00 00 E5 D0 
   2004.273038 1  001       Rx   d 8 05 01 C0 00 E3 07 E1 78 
   2004.274062 1  001       Rx   d 8 05 01 E3 40 E8 00 E1 A0 
   2004.274090 1  001       Rx   d 8 05 01 01 8C E0 80 C1 0C 
   2004.274096 1  001       Rx   d 8 05 01 E0 8E C0 0C E5 9C 
   2004.274103 1  001       Rx   d 8 05 01 00 04 E3 50 00 00 
   2004.275506 1  001       Rx   d 8 05 01 15 9C C0 00 0A 00 
   2004.275516 1  001       Rx   d 8 05 01 00 08 E0 8C C1 01 
   2004.275522 1  001       Rx   d 8 05 01 E5 9C C0 98 E7 E6 
   2004.275528 1  001       Rx   d 8 05 01 C4 5C E0 80 C1 0C 
   2004.276499 1  001       Rx   d 8 05 01 E5 82 C0 00 E3 A0 
   2004.276510 1  001       Rx   d 2 02 01 
   2004.276518 1  002       Rx   d 6 02 01 00 42 00 00 
   2004.277524 1  001       Rx   d 8 05 01 00 00 E2 8C CC 02 
   2004.277578 1  001       Rx   d 8 05 01 E5 83 C0 00 E8 BD 
   2004.278517 1  001       Rx   d 8 05 01 80 08 E3 09 00 01 
   2004.278572 1  001       Rx   d 8 05 01 E8 BD 80 08 00 00 
   2004.278597 1  001       Rx   d 8 05 01 00 00 00 00 00 00 
   2004.278603 1  001       Rx   d 8 05 01 00 00 00 00 E3 50 
   2004.279505 1  001       Rx   d 8 05 01 00 04 C3 A0 00 00 
   2004.279561 1  001       Rx   d 8 05 01 C1 2F FF 1E E3 A0 
   2004.279567 1  001       Rx   d 8 05 01 C0 0C E3 07 31 78 
   2004.279574 1  001       Rx   d 8 05 01 E3 40 38 00 E1 6C 
   2004.280468 1  001       Rx   d 8 05 01 0C 80 E7 93 00 0C 
   2004.280479 1  001       Rx   d 2 02 01 
   2004.280484 1  002       Rx   d 6 02 01 00 42 00 00 
   2004.281461 1  001       Rx   d 8 05 01 E1 2F FF 1E 00 00 
   2004.281473 1  001       Rx   d 8 05 01 00 00 00 00 00 00 
   2004.282451 1  001       Rx   d 8 05 01 00 00 00 00 E3 50 
   2004.282460 1  001       Rx   d 8 05 01 00 00 E9 2D 40 08 
   2004.282467 1  001       Rx   d 8 05 01 15 D0 C0 01 03 09 
   2004.282473 1  001       Rx   d 8 05 01 00 01 08 BD 80 08 
   2004.283443 1  001       Rx   d 8 05 01 E1 5C 00 01 DA 00 
   2004.283453 1  001       Rx   d 8 05 01 00 01 E3 51 00 08 
   2004.283459 1  001       Rx   d 8 05 01 BA 00 00 01 E3 09 
   2004.283465 1  001       Rx   d 8 05 01 00 02 E8 BD 80 08 
   2004.284436 1  001       Rx   d 8 05 01 E5 D0 00 00 EB FF 
   2004.284447 1  001       Rx   d 2 02 01 
   2004.284452 1  002       Rx   d 6 02 01 00 42 00 00 
   2004.285426 1  001       Rx   d 8 05 01 FF E6 E3 50 00 00 
   2004.285436 1  001       Rx   d 8 05 01 E3 A0 20 01 0A 00 
   2004.286418 1  001       Rx   d 8 05 01 00 08 E0 80 C1 01 
   2004.286428 1  001       Rx   d 8 05 01 E1 A0 11 12 E1 A0 
   2004.286434 1  001       Rx   d 8 05 01 18 01 E5 80 10 84 
   2004.286441 1  001       Rx   d 8 05 01 E5 9C 00 98 E3 80 
   2004.287410 1  001       Rx   d 8 05 01 01 02 E5 8C 00 98 
   2004.287420 1  001       Rx   d 8 05 01 E3 A0 00 00 E8 BD 
   2004.287427 1  001       Rx   d 8 05 01 80 08 E3 09 00 11 
   2004.287433 1  001       Rx   d 8 05 01 E8 BD 80 08 00 00 
   2004.288403 1  001       Rx   d 8 05 01 00 00 E9 2D 40 10 
   2004.288413 1  001       Rx   d 2 02 01 
   2004.288418 1  002       Rx   d 6 02 01 00 42 00 00 
   2004.289394 1  001       Rx   d 8 05 01 E3 08 40 00 E3 40 
   2004.289404 1  001       Rx   d 8 05 01 48 03 E2 4D D0 18 
   2004.290386 1  001       Rx   d 8 05 01 E5 94 C0 04 E3 A0 
   2004.290396 1  001       Rx   d 8 05 01 0C E1 E1 CD 00 B0 
   2004.290403 1  001       Rx   d 8 05 01 E1 CD 00 B2 E5 9C 
   2004.290409 1  001       Rx   d 8 05 01 20 18 E1 CD 00 B4 
   2004.291378 1  001       Rx   d 8 05 01 E5 DC 10 14 E5 94 
   2004.291389 1  001       Rx   d 8 05 01 00 00 E1 D2 20 B0 
   2004.291395 1  001       Rx   d 8 05 01 E1 A0 30 0D EB FF 
   2004.291401 1  001       Rx   d 8 05 01 FF 9C E3 50 00 00 
   2004.292371 1  001       Rx   d 8 05 01 1A 00 00 3B E5 94 
   2004.292380 1  001       Rx   d 2 02 01 
   2004.292385 1  002       Rx   d 6 02 01 00 42 00 00 
   2004.297229 1  001       Rx   d 8 05 01 C0 04 E5 94 00 00 
   2004.297272 1  001       Rx   d 8 05 01 E5 DC 10 14 E2 84 
   2004.297328 1  001       Rx   d 8 05 01 20 10 E2 84 30 14 
   2004.297421 1  001       Rx   d 8 05 01 EB FF FF 9C E3 50 
   2004.297432 1  001       Rx   d 8 05 01 00 00 1A 00 00 33 
   2004.297442 1  001       Rx   d 8 05 01 E5 94 C0 04 E5 9C 
   2004.297452 1  001       Rx   d 8 05 01 20 1C E3 A0 1B 03 
   2004.297463 1  001       Rx   d 8 05 01 E1 CD 10 B0 E5 94 
   2004.297472 1  001       Rx   d 8 05 01 00 00 E5 DC 10 15 
   2004.297528 1  001       Rx   d 8 05 01 E1 D2 20 B0 E1 A0 
   2004.297540 1  001       Rx   d 8 05 01 30 0D EB FF FF 89 
   2004.297577 1  001       Rx   d 2 02 01 
   2004.297602 1  002       Rx   d 6 02 01 00 42 00 00 
   2004.297629 1  001       Rx   d 8 05 01 E3 50 00 00 1A 00 
   2004.297636 1  001       Rx   d 8 05 01 00 28 E5 94 C0 04 
   2004.298857 1  001       Rx   d 8 05 01 E5 94 00 00 E5 DC 
   2004.298871 1  001       Rx   d 8 05 01 10 15 E2 84 20 18 
   2004.298878 1  001       Rx   d 8 05 01 E2 84 30 1C EB FF 
   2004.298885 1  001       Rx   d 8 05 01 FF 89 E3 50 00 00 
   2004.299402 1  001       Rx   d 8 05 01 1A 00 00 20 E5 94 
   2004.299434 1  001       Rx   d 8 05 01 C0 04 E5 94 00 00 
   2004.299441 1  001       Rx   d 8 05 01 E5 DC 10 15 EB FF 
   2004.299447 1  001       Rx   d 8 05 01 FF B3 E3 50 00 00 
   2004.300438 1  001       Rx   d 8 05 01 1A 00 00 1A E3 A0 
   2004.300495 1  001       Rx   d 2 02 01 
   2004.300500 1  002       Rx   d 6 02 01 00 42 00 00 
   2004.301798 1  001       Rx   d 8 05 01 1C C5 E1 CD 10 B8 
   2004.301811 1  001       Rx   d 8 05 01 E3 A0 EC 12 E1 CD 
   2004.302789 1  001       Rx   d 8 05 01 E0 B2 E3 A0 CC A6 
   2004.302817 1  001       Rx   d 8 05 01 E1 CD C0 B4 E3 A0 
   2004.302824 1  001       Rx   d 8 05 01 3B 09 E1 CD 30 B6 
   2004.302831 1  001       Rx   d 8 05 01 E3 A0 0C A3 E1 CD 
   2004.303781 1  001       Rx   d 8 05 01 00 BA E5 94 10 04 
   2004.303808 1  001       Rx   d 8 05 01 E3 A0 2C 11 E1 CD 
   2004.303816 1  001       Rx   d 8 05 01 20 B0 E3 A0 EC A5 
   2004.303822 1  001       Rx   d 8 05 01 E1 CD E0 BC E3 A0 
   2004.304777 1  001       Rx   d 8 05 01 C9 03 E1 CD C0 BE 
   2004.304811 1  001       Rx   d 2 02 01 
   2004.304817 1  002       Rx   d 6 02 01 00 42 00 00 
   2004.305776 1  001       Rx   d 8 05 01 E3 A0 3C AA E1 CD 
   2004.305805 1  001       Rx   d 8 05 01 31 B0 E5 91 C0 20 
   2004.306758 1  001       Rx   d 8 05 01 E3 A0 EC 36 E1 CD 
   2004.306786 1  001       Rx   d 8 05 01 E1 B2 E5 94 00 00 
   2004.306794 1  001       Rx   d 8 05 01 E5 D1 10 16 E1 DC 
   2004.306801 1  001       Rx   d 8 05 01 20 B0 E1 A0 30 0D 
   2004.307752 1  001       Rx   d 8 05 01 EB FF FF 5E E2 8D 
   2004.307780 1  001       Rx   d 8 05 01 D0 18 E8 BD 80 10 
   2004.307788 1  001       Rx   d 8 05 01 00 00 00 00 E3 50 
   2004.307795 1  001       Rx   d 8 05 01 00 00 13 52 00 00 
   2004.308745 1  001       Rx   d 8 05 01 03 09 00 01 01 2F 
   2004.308787 1  001       Rx   d 2 02 01 
   2004.308794 1  002       Rx   d 6 02 01 00 42 00 00 
   2004.310521 1  001       Rx   d 8 05 01 FF 1E E5 D0 C0 01 
   2004.310559 1  001       Rx   d 8 05 01 E1 5C 00 01 DA 00 
   2004.310567 1  001       Rx   d 8 05 01 00 01 E3 51 00 08 
   2004.310574 1  001       Rx   d 8 05 01 BA 00 00 02 E3 09 
   2004.310581 1  001       Rx   d 8 05 01 00 02 E1 2F FF 1E 
   2004.310586 1  001       Rx   d 8 05 01 01 A0 00 00 E5 D0 
   2004.311734 1  001       Rx   d 8 05 01 C0 00 E3 07 31 78 
   2004.311769 1  001       Rx   d 8 05 01 E3 40 38 00 E1 A0 
   2004.311778 1  001       Rx   d 8 05 01 01 8C E0 80 C1 0C 
   2004.311785 1  001       Rx   d 8 05 01 E3 A0 00 00 E7 93 
   2004.312711 1  001       Rx   d 8 05 01 C0 0C E3 A0 30 01 
   2004.312732 1  001       Rx   d 2 02 01 
   2004.312737 1  002       Rx   d 6 02 01 00 42 00 00 
   2004.313702 1  001       Rx   d 8 05 01 E5 9C C0 84 E1 A0 
   2004.313716 1  001       Rx   d 8 05 01 C8 2C E0 03 C1 3C 
   2004.314699 1  001       Rx   d 8 05 01 E5 C2 C0 00 E1 2F 
   2004.314714 1  001       Rx   d 8 05 01 FF 1E 00 00 00 00 
   2004.314721 1  001       Rx   d 8 05 01 00 00 00 00 00 00 
   2004.314727 1  001       Rx   d 8 05 01 00 00 E9 2D 40 70 
   2004.315685 1  001       Rx   d 8 05 01 E3 08 40 00 E3 40 
   2004.315699 1  001       Rx   d 8 05 01 48 03 E5 94 C0 04 
   2004.315706 1  001       Rx   d 8 05 01 E1 A0 50 00 E5 94 
   2004.315712 1  001       Rx   d 8 05 01 00 00 E2 4D D0 08 
   2004.316700 1  001       Rx   d 8 05 01 E5 DC 10 15 E1 A0 
   2004.316731 1  001       Rx   d 2 02 01 
   2004.316736 1  002       Rx   d 6 02 01 00 42 00 00 
   2004.318431 1  001       Rx   d 8 05 01 20 0D EB FF FF D9 
   2004.318459 1  001       Rx   d 8 05 01 E3 50 00 00 E5 DD 
   2004.318666 1  001       Rx   d 8 05 01 C0 00 1A 00 00 1F 
   2004.318675 1  001       Rx   d 8 05 01 E3 5C 00 00 05 94 
   2004.318682 1  001       Rx   d 8 05 01 C0 04 1A 00 00 1C 
   2004.318688 1  001       Rx   d 8 05 01 E3 A0 60 00 E5 9C 
   2004.320410 1  001       Rx   d 8 05 01 10 28 E3 51 00 00 
   2004.320439 1  001       Rx   d 8 05 01 E5 DD 10 00 0A 00 
   2004.320446 1  001       Rx   d 8 05 01 00 13 01 A0 00 00 
   2004.320453 1  001       Rx   d 8 05 01 01 A0 00 00 01 A0 
   2004.321146 1  001       Rx   d 8 05 01 00 00 E3 50 00 00 
   2004.321166 1  001       Rx   d 2 02 01 
   2004.321178 1  002       Rx   d 6 02 01 00 42 00 00 
   2004.322321 1  001       Rx   d 8 05 01 1A 00 00 12 E3 51 
   2004.322337 1  001       Rx   d 8 05 01 00 00 1A 00 00 0C 
   2004.323306 1  001       Rx   d 8 05 01 E5 9C C0 24 E1 2F 
   2004.323320 1  001       Rx   d 8 05 01 FF 3C E5 94 C0 04 
   2004.323327 1  001       Rx   d 8 05 01 E5 94 00 00 E5 DC 
   2004.323334 1  001       Rx   d 8 05 01 10 15 E1 A0 20 0D 
   2004.324296 1  001       Rx   d 8 05 01 EB FF FF C0 E5 94 
   2004.324310 1  001       Rx   d 8 05 01 C0 04 E2 86 60 01 
   2004.324317 1  001       Rx   d 8 05 01 E5 9C 10 28 E1 56 
   2004.324323 1  001       Rx   d 8 05 01 00 01 E5 DD 10 00 
   2004.325115 1  001       Rx   d 8 05 01 3A FF FF EE E3 50 
   2004.325130 1  001       Rx   d 2 02 01 
   2004.325135 1  002       Rx   d 6 02 01 00 42 00 00 
   2004.326361 1  001       Rx   d 8 05 01 00 00 05 DD C0 00 
   2004.326391 1  001       Rx   d 8 05 01 03 5C 00 00 01 A0 
   2004.327359 1  001       Rx   d 8 05 01 00 05 E2 8D D0 08 
   2004.327413 1  001       Rx   d 8 05 01 E8 BD 80 70 00 00 
   2004.327421 1  001       Rx   d 8 05 01 00 00 E3 51 00 00 
   2004.327428 1  001       Rx   d 8 05 01 E9 2D 40 08 E3 A0 
   2004.328089 1  001       Rx   d 8 05 01 C0 00 0A 00 00 11 
   2004.328109 1  001       Rx   d 8 05 01 E3 0F 33 00 E2 40 
   2004.328117 1  001       Rx   d 8 05 01 20 02 E1 A0 00 0C 
   2004.328124 1  001       Rx   d 8 05 01 E3 4F 3F FF E1 F2 
   2004.329079 1  001       Rx   d 8 05 01 E0 B2 01 A0 00 00 
   2004.329122 1  001       Rx   d 2 02 01 
   2004.329128 1  002       Rx   d 6 02 01 00 42 00 00 
   2004.330076 1  001       Rx   d 8 05 01 01 A0 00 00 01 A0 
   2004.330089 1  001       Rx   d 8 05 01 00 00 E2 80 00 01 
   2004.331074 1  001       Rx   d 8 05 01 E0 03 E0 0E E3 5E 
   2004.331105 1  001       Rx   d 8 05 01 0A 0A 13 04 C0 06 
   2004.331112 1  001       Rx   d 8 05 01 E1 51 00 00 E6 FF 
   2004.331119 1  001       Rx   d 8 05 01 C0 7C 9A 00 00 02 
   2004.332051 1  001       Rx   d 8 05 01 E3 5C 00 00 01 F2 
   2004.332062 1  001       Rx   d 8 05 01 E0 B2 0A FF FF F5 
   2004.332069 1  001       Rx   d 8 05 01 E1 A0 00 0C E8 BD 
   2004.332075 1  001       Rx   d 8 05 01 80 08 E9 2D 40 38 
   2004.333045 1  001       Rx   d 8 05 01 E1 A0 40 01 E1 A0 
   2004.333057 1  001       Rx   d 2 02 01 
   2004.333062 1  002       Rx   d 6 02 01 00 42 00 00 
   2004.334036 1  001       Rx   d 8 05 01 50 00 E3 04 00 10 
   2004.334046 1  001       Rx   d 8 05 01 EB FF FF B2 E1 A0 
   2004.335027 1  001       Rx   d 8 05 01 C0 05 E3 50 00 00 
   2004.335037 1  001       Rx   d 8 05 01 18 BD 80 38 E3 08 
   2004.335043 1  001       Rx   d 8 05 01 50 00 E3 40 58 03 
   2004.335050 1  001       Rx   d 8 05 01 E5 95 00 18 E5 95 
   2004.336018 1  001       Rx   d 8 05 01 10 04 E1 C0 C0 B2 
   2004.336028 1  001       Rx   d 8 05 01 E5 95 00 00 E5 D1 
   2004.336035 1  001       Rx   d 8 05 01 10 15 EB FF FF 1F 
   2004.336041 1  001       Rx   d 8 05 01 E3 50 00 00 18 BD 
   2004.337011 1  001       Rx   d 8 05 01 80 38 E3 04 00 11 
   2004.337023 1  001       Rx   d 2 02 01 
   2004.337028 1  002       Rx   d 6 02 01 00 42 00 00 
   2004.338003 1  001       Rx   d 8 05 01 EB FF FF A3 E3 50 
   2004.338013 1  001       Rx   d 8 05 01 00 00 18 BD 80 38 
   2004.338994 1  001       Rx   d 8 05 01 E5 95 C0 1C E3 54 
   2004.339004 1  001       Rx   d 8 05 01 00 00 E1 DC C0 B2 
   2004.339011 1  001       Rx   d 8 05 01 E1 CD C0 B0 15 DD 
   2004.339018 1  001       Rx   d 8 05 01 C0 01 15 C4 C0 00 
   2004.339987 1  001       Rx   d 8 05 01 E1 A0 00 0D E3 A0 
   2004.339996 1  001       Rx   d 8 05 01 10 01 EB FF FF C8 
   2004.340003 1  001       Rx   d 8 05 01 E8 BD 80 38 E9 2D 
   2004.340009 1  001       Rx   d 8 05 01 41 F0 E1 A0 60 03 
   2004.340979 1  001       Rx   d 8 05 01 E1 B0 70 00 E1 A0 
   2004.340989 1  001       Rx   d 2 02 01 
   2004.340994 1  002       Rx   d 6 02 01 00 42 00 00 
   2004.341971 1  001       Rx   d 8 05 01 80 01 0A 00 00 40 
   2004.341982 1  001       Rx   d 8 05 01 E3 58 00 00 E3 08 
   2004.342963 1  001       Rx   d 8 05 01 40 00 0A 00 00 3D 
   2004.342975 1  001       Rx   d 8 05 01 E3 40 48 03 E5 94 
   2004.342982 1  001       Rx   d 8 05 01 C0 00 E3 5C 00 00 
   2004.342989 1  001       Rx   d 8 05 01 13 04 00 02 18 BD 
   2004.343955 1  001       Rx   d 8 05 01 81 F0 E3 52 00 00 
   2004.343965 1  001       Rx   d 8 05 01 0A 00 00 02 EB FF 
   2004.343972 1  001       Rx   d 8 05 01 FC 5B E3 50 00 00 
   2004.343978 1  001       Rx   d 8 05 01 1A 00 00 2E E3 A0 
   2004.345482 1  001       Rx   d 8 05 01 00 00 E5 84 00 24 
   2004.345514 1  001       Rx   d 2 02 01 
   2004.345524 1  002       Rx   d 6 02 01 00 42 00 00 
   2004.346435 1  001       Rx   d 8 05 01 E5 84 00 0C E1 A0 
   2004.346445 1  001       Rx   d 8 05 01 C0 00 E5 C4 C0 28 
   2004.347497 1  001       Rx   d 8 05 01 E5 C4 C0 29 E2 84 
   2004.347514 1  001       Rx   d 8 05 01 50 2A E5 C4 C0 08 
   2004.347521 1  001       Rx   d 8 05 01 E5 C4 C0 20 E5 C5 
   2004.347527 1  001       Rx   d 8 05 01 00 00 E5 C4 C0 2B 
   2004.348420 1  001       Rx   d 8 05 01 E5 C4 C0 2C E5 C4 
   2004.348432 1  001       Rx   d 8 05 01 C0 2D E5 C4 C0 2E 
   2004.348439 1  001       Rx   d 8 05 01 E5 C4 C0 2F E5 C4 
   2004.348444 1  001       Rx   d 8 05 01 C0 30 E5 C4 C0 31 
   2004.349414 1  001       Rx   d 8 05 01 E5 C4 C0 32 E5 84 
   2004.349426 1  001       Rx   d 2 02 01 
   2004.349431 1  002       Rx   d 6 02 01 00 42 00 00 
   2004.350402 1  001       Rx   d 8 05 01 80 04 E5 84 70 00 
   2004.350413 1  001       Rx   d 8 05 01 EB FF FF 04 E3 50 
   2004.351394 1  001       Rx   d 8 05 01 00 00 1A 00 00 17 
   2004.351404 1  001       Rx   d 8 05 01 E3 A0 0B 03 E1 A0 
   2004.351411 1  001       Rx   d 8 05 01 10 05 EB FF FF B3 
   2004.351418 1  001       Rx   d 8 05 01 E3 50 00 00 05 D5 
   2004.352386 1  001       Rx   d 8 05 01 C0 00 1A 00 00 11 
   2004.352396 1  001       Rx   d 8 05 01 E3 5C 00 30 0A 00 
   2004.352402 1  001       Rx   d 8 05 01 00 07 E3 5C 00 21 
   2004.352408 1  001       Rx   d 8 05 01 0A 00 00 05 E3 5C 
   2004.353379 1  001       Rx   d 8 05 01 00 20 0A 00 00 03 
   2004.353392 1  001       Rx   d 2 02 01 
   2004.353397 1  002       Rx   d 6 02 01 00 42 00 00 
   2004.354370 1  001       Rx   d 8 05 01 E3 5C 00 11 13 5C 
   2004.354380 1  001       Rx   d 8 05 01 00 10 13 04 00 0F 
   2004.355362 1  001       Rx   d 8 05 01 1A 00 00 07 E3 56 
   2004.355372 1  001       Rx   d 8 05 01 00 00 08 BD 81 F0 
   2004.355378 1  001       Rx   d 8 05 01 E3 A0 0C 06 E1 A0 
   2004.355384 1  001       Rx   d 8 05 01 10 06 EB FF FF A1 
   2004.356354 1  001       Rx   d 8 05 01 E3 50 00 00 05 D5 
   2004.356364 1  001       Rx   d 8 05 01 C0 00 0A 00 00 02 
   2004.356371 1  001       Rx   d 8 05 01 E3 A0 C0 00 E5 84 
   2004.356377 1  001       Rx   d 8 05 01 C0 00 E8 BD 81 F0 
   2004.357347 1  001       Rx   d 8 05 01 E5 C6 C0 01 E8 BD 
   2004.357386 1  001       Rx   d 2 02 01 
   2004.357392 1  002       Rx   d 6 02 01 00 42 00 00 
   2004.358339 1  001       Rx   d 8 05 01 81 F0 E3 04 00 01 
   2004.358349 1  001       Rx   d 8 05 01 E8 BD 81 F0 E9 2D 
   2004.359330 1  001       Rx   d 8 05 01 47 F0 E1 A0 50 02 
   2004.359341 1  001       Rx   d 8 05 01 E5 9D 60 20 E1 A0 
   2004.359348 1  001       Rx   d 8 05 01 70 00 E5 DD 40 27 
   2004.359354 1  001       Rx   d 8 05 01 E1 A0 80 01 E1 A0 
   2004.360323 1  001       Rx   d 8 05 01 20 06 EB FF FD FB 
   2004.360334 1  001       Rx   d 8 05 01 E3 50 00 00 18 BD 
   2004.360341 1  001       Rx   d 8 05 01 87 F0 E3 53 00 00 
   2004.360348 1  001       Rx   d 8 05 01 03 09 00 01 08 BD 
   2004.361315 1  001       Rx   d 8 05 01 87 F0 E5 97 C0 04 
   2004.361354 1  001       Rx   d 2 02 01 
   2004.361359 1  002       Rx   d 6 02 01 00 42 00 00 
   2004.362307 1  001       Rx   d 8 05 01 E3 A0 10 05 E3 54 
   2004.362317 1  001       Rx   d 8 05 01 00 00 E1 0C C1 88 
   2004.363308 1  001       Rx   d 8 05 01 0A 00 00 04 E5 DC 
   2004.363321 1  001       Rx   d 8 05 01 C0 04 E1 5C 00 04 
   2004.363327 1  001       Rx   d 8 05 01 AA 00 00 02 E3 09 
   2004.363348 1  001       Rx   d 8 05 01 00 10 E8 BD 87 F0 
   2004.364339 1  001       Rx   d 8 05 01 E5 DC 40 04 E5 D7 
   2004.364352 1  001       Rx   d 8 05 01 C0 00 E3 07 21 78 
   2004.364358 1  001       Rx   d 8 05 01 E3 40 28 00 E1 A0 
   2004.364365 1  001       Rx   d 8 05 01 11 8C E0 81 C1 0C 
   2004.365328 1  001       Rx   d 8 05 01 E0 82 10 0C E7 E1 
   2004.365379 1  001       Rx   d 2 02 01 
   2004.365386 1  002       Rx   d 6 02 01 00 42 00 00 
   2004.366275 1  001       Rx   d 8 05 01 C4 55 E3 A0 50 00 
   2004.367266 1  001       Rx   d 8 05 01 E1 A0 A2 0C E5 91 
   2004.367276 1  001       Rx   d 8 05 01 20 00 E0 82 E1 08 
   2004.367283 1  001       Rx   d 8 05 01 E0 8A 21 8C E5 91 
   2004.367289 1  001       Rx   d 8 05 01 A0 04 E0 87 90 02 
   2004.368785 1  001       Rx   d 8 05 01 E5 9E 80 98 E3 00 
   2004.368841 1  001       Rx   d 8 05 01 12 02 E1 C3 50 B0 
   2004.368889 1  001       Rx   d 8 05 01 E0 81 20 0A E5 D9 
   2004.368895 1  001       Rx   d 8 05 01 E0 18 E7 E6 14 58 
   2004.369748 1  001       Rx   d 8 05 01 E3 5E 00 10 E3 A0 
   2004.369760 1  001       Rx   d 8 05 01 E0 18 CA 00 00 33 
   2004.369767 1  001       Rx   d 2 02 01 
   2004.369771 1  002       Rx   d 6 02 01 00 42 00 00 
   2004.370772 1  001       Rx   d 8 05 01 E1 0C 7E 8C E5 DC 
   2004.370826 1  001       Rx   d 8 05 01 C0 18 E3 5C 00 08 
   2004.371763 1  001       Rx   d 8 05 01 E0 84 C0 01 DA 00 
   2004.371824 1  001       Rx   d 8 05 01 00 2E E6 EF C0 7C 
   2004.371830 1  001       Rx   d 8 05 01 E1 5C 00 01 D8 BD 
   2004.371837 1  001       Rx   d 8 05 01 87 F0 E0 4C E0 01 
   2004.372759 1  001       Rx   d 8 05 01 E3 5E 00 02 E0 21 
   2004.372807 1  001       Rx   d 8 05 01 40 0C E2 04 A0 01 
   2004.372815 1  001       Rx   d 8 05 01 E1 A0 C0 CE BA 00 
   2004.372856 1  001       Rx   d 8 05 01 00 1A E1 A0 E1 01 
   2004.373753 1  001       Rx   d 8 05 01 E0 8E 40 02 E2 44 
   2004.373779 1  001       Rx   d 2 02 01 
   2004.373788 1  002       Rx   d 6 02 01 00 42 00 00 
   2004.374708 1  001       Rx   d 8 05 01 40 02 E0 8E 50 02 
   2004.374718 1  001       Rx   d 8 05 01 E2 42 90 02 E2 46 
   2004.375698 1  001       Rx   d 8 05 01 60 04 01 A0 00 00 
   2004.375708 1  001       Rx   d 8 05 01 E1 D3 70 B0 E2 81 
   2004.375714 1  001       Rx   d 8 05 01 E0 01 E0 D4 80 B8 
   2004.375721 1  001       Rx   d 8 05 01 E6 EF E0 7E E1 88 
   2004.376732 1  001       Rx   d 8 05 01 70 07 E1 C3 70 B0 
   2004.376742 1  001       Rx   d 8 05 01 E1 A0 E1 0E E0 D5 
   2004.376748 1  001       Rx   d 8 05 01 70 B8 E1 E6 70 B4 
   2004.376754 1  001       Rx   d 8 05 01 E1 99 80 BE E2 81 
   2004.377682 1  001       Rx   d 8 05 01 10 02 E1 D3 70 B0 
   2004.377692 1  001       Rx   d 2 02 01 
   2004.377697 1  002       Rx   d 6 02 01 00 42 00 00 
   2004.378718 1  001       Rx   d 8 05 01 E2 5C C0 01 E6 EF 
   2004.378729 1  001       Rx   d 8 05 01 10 71 E1 88 70 07 
   2004.379718 1  001       Rx   d 8 05 01 E1 C3 70 B0 E1 92 
   2004.379728 1  001       Rx   d 8 05 01 E0 BE E1 C6 E0 B2 
   2004.379735 1  001       Rx   d 8 05 01 1A FF FF EC E2 86 
   2004.379741 1  001       Rx   d 8 05 01 60 04 E3 5A 00 00 
   2004.380659 1  001       Rx   d 8 05 01 D8 BD 87 F0 E1 A0 
   2004.380671 1  001       Rx   d 8 05 01 C1 01 E1 D3 10 B0 
   2004.380677 1  001       Rx   d 8 05 01 E0 82 E0 0C E1 5E 
   2004.380704 1  001       Rx   d 8 05 01 E0 B2 E1 8E 10 01 
   2004.381655 1  001       Rx   d 8 05 01 E1 C3 10 B0 E1 92 
   2004.381673 1  001       Rx   d 2 02 01 
   2004.381680 1  002       Rx   d 6 02 01 00 42 00 00 
   2004.382642 1  001       Rx   d 8 05 01 C0 BC E1 C6 C0 B0 
   2004.382654 1  001       Rx   d 8 05 01 E8 BD 87 F0 E3 09 
   2004.383634 1  001       Rx   d 8 05 01 00 01 E8 BD 87 F0 
   2004.383644 1  001       Rx   d 8 05 01 00 00 00 00 00 00 
   2004.383650 1  001       Rx   d 8 05 01 00 00 00 00 00 00 
   2004.383655 1  001       Rx   d 8 05 01 E9 2D 40 00 E2 4D 
   2004.384626 1  001       Rx   d 8 05 01 D0 0C E5 9D C0 10 
   2004.384637 1  001       Rx   d 8 05 01 E5 8D C0 00 E3 A0 
   2004.384643 1  001       Rx   d 8 05 01 E0 00 E5 8D E0 04 
   2004.384649 1  001       Rx   d 8 05 01 EB FF FF 90 E2 8D 
   2004.385618 1  001       Rx   d 8 05 01 D0 0C E8 BD 80 00 
   2004.385630 1  001       Rx   d 2 02 01 
   2004.385634 1  002       Rx   d 6 02 01 00 42 00 00 
   2004.386610 1  001       Rx   d 8 05 01 00 00 00 00 00 00 
   2004.386620 1  001       Rx   d 8 05 01 00 00 00 00 00 00 
   2004.387602 1  001       Rx   d 8 05 01 E9 2D 4F F0 E3 08 
   2004.387612 1  001       Rx   d 8 05 01 40 00 E2 4D D0 34 
   2004.387619 1  001       Rx   d 8 05 01 E1 A0 50 00 E3 40 
   2004.387625 1  001       Rx   d 8 05 01 48 03 E1 A0 60 01 
   2004.388604 1  001       Rx   d 8 05 01 E5 94 C0 00 E3 5C 
   2004.388619 1  001       Rx   d 8 05 01 00 00 03 04 00 03 
   2004.388627 1  001       Rx   d 8 05 01 0A 00 00 C2 E3 55 
   2004.388633 1  001       Rx   d 8 05 01 00 00 13 56 00 00 
   2004.390161 1  001       Rx   d 8 05 01 03 04 00 09 0A 00 
   2004.390173 1  001       Rx   d 2 02 01 
   2004.390177 1  002       Rx   d 6 02 01 00 42 00 00 
   2004.390578 1  001       Rx   d 8 05 01 00 BE E3 A0 C0 00 
   2004.390589 1  001       Rx   d 8 05 01 E5 C6 C0 00 E5 D4 
   2004.391570 1  001       Rx   d 8 05 01 C0 20 E3 5C 00 00 
   2004.391581 1  001       Rx   d 8 05 01 1A 00 00 0C E5 94 
   2004.391588 1  001       Rx   d 8 05 01 C0 04 E5 94 00 00 
   2004.391594 1  001       Rx   d 8 05 01 E5 DC 10 16 EB FF 
   2004.393090 1  001       Rx   d 8 05 01 FE 3C E3 50 00 00 
   2004.393142 1  001       Rx   d 8 05 01 12 8D D0 34 1A 00 
   2004.393179 1  001       Rx   d 8 05 01 00 B3 E3 A0 C0 01 
   2004.393204 1  001       Rx   d 8 05 01 E2 8D D0 34 E5 C4 
   2004.394051 1  001       Rx   d 8 05 01 C0 20 EA 00 00 AF 
   2004.394063 1  001       Rx   d 2 02 01 
   2004.394067 1  002       Rx   d 6 02 01 00 42 00 00 
   2004.395075 1  001       Rx   d 8 05 01 01 A0 00 00 01 A0 
   2004.395134 1  001       Rx   d 8 05 01 00 00 E5 94 C0 04 
   2004.396056 1  001       Rx   d 8 05 01 E5 94 00 00 E5 DC 
   2004.396107 1  001       Rx   d 8 05 01 10 16 E2 8D 20 04 
   2004.396149 1  001       Rx   d 8 05 01 EB FF FE 9A E3 50 
   2004.396155 1  001       Rx   d 8 05 01 00 00 E5 DD C0 04 
   2004.397028 1  001       Rx   d 8 05 01 1A 00 00 A4 E3 5C 
   2004.397040 1  001       Rx   d 8 05 01 00 00 0A 00 00 A2 
   2004.397048 1  001       Rx   d 8 05 01 E3 A0 C0 01 E5 C6 
   2004.397056 1  001       Rx   d 8 05 01 C0 00 E5 94 C0 04 
   2004.398020 1  001       Rx   d 8 05 01 E2 8D 00 08 E5 8D 
   2004.398036 1  001       Rx   d 2 02 01 
   2004.398042 1  002       Rx   d 6 02 01 00 42 00 00 
   2004.399041 1  001       Rx   d 8 05 01 00 00 E5 9C 20 20 
   2004.399094 1  001       Rx   d 8 05 01 E5 94 00 00 E5 DC 
   2004.400040 1  001       Rx   d 8 05 01 10 16 E1 D2 20 B0 
   2004.400050 1  001       Rx   d 8 05 01 E2 8D 30 06 EB FF 
   2004.400056 1  001       Rx   d 8 05 01 FF BE E3 50 00 00 
   2004.400063 1  001       Rx   d 8 05 01 1A 00 00 95 E2 8D 
   2004.401034 1  001       Rx   d 8 05 01 00 08 E3 A0 10 0A 
   2004.401043 1  001       Rx   d 8 05 01 EB FF FE D1 E1 B0 
   2004.401050 1  001       Rx   d 8 05 01 60 00 0A 00 00 07 
   2004.401056 1  001       Rx   d 8 05 01 E5 94 C0 04 E5 94 
   2004.401990 1  001       Rx   d 8 05 01 00 00 E5 DC 10 16 
   2004.402002 1  001       Rx   d 2 02 01 
   2004.402007 1  002       Rx   d 6 02 01 00 42 00 00 
   2004.402978 1  001       Rx   d 8 05 01 EB FF FE 13 E1 A0 
   2004.402989 1  001       Rx   d 8 05 01 00 06 EA 00 00 8A 
   2004.404211 1  001       Rx   d 8 05 01 01 A0 00 00 01 A0 
   2004.404222 1  001       Rx   d 8 05 01 00 00 E5 DD 30 0D 
   2004.404229 1  001       Rx   d 8 05 01 E1 A0 C2 43 E2 0C 
   2004.404236 1  001       Rx   d 8 05 01 00 02 E2 0C C0 01 
   2004.404962 1  001       Rx   d 8 05 01 E1 8C 00 00 E5 DD 
   2004.404972 1  001       Rx   d 8 05 01 C0 0F E1 A0 11 CC 
   2004.404980 1  001       Rx   d 8 05 01 E2 01 20 02 E5 C5 
   2004.404986 1  001       Rx   d 8 05 01 00 04 E1 A0 E0 CC 
   2004.405955 1  001       Rx   d 8 05 01 E1 A0 02 AC E3 C0 
   2004.405970 1  001       Rx   d 2 02 01 
   2004.405974 1  002       Rx   d 6 02 01 00 42 00 00 
   2004.406946 1  001       Rx   d 8 05 01 80 03 E1 DD 70 BE 
   2004.406957 1  001       Rx   d 8 05 01 E7 E0 12 DC E1 82 
   2004.407938 1  001       Rx   d 8 05 01 10 01 E2 07 00 02 
   2004.407948 1  001       Rx   d 8 05 01 E5 D5 90 04 E2 0E 
   2004.407955 1  001       Rx   d 8 05 01 20 04 E1 82 20 01 
   2004.407962 1  001       Rx   d 8 05 01 E1 88 10 09 E1 DD 
   2004.408931 1  001       Rx   d 8 05 01 60 BA E1 81 01 00 
   2004.408941 1  001       Rx   d 8 05 01 E5 8D 00 20 E5 DD 
   2004.408947 1  001       Rx   d 8 05 01 10 0B E2 0C B0 04 
   2004.408954 1  001       Rx   d 8 05 01 E1 A0 03 46 E1 A0 
   2004.408960 1  001       Rx   d 8 05 01 73 21 E1 82 A0 8B 
   2004.409923 1  001       Rx   d 2 02 01 
   2004.409932 1  002       Rx   d 6 02 01 00 42 00 00 
   2004.410914 1  001       Rx   d 8 05 01 E1 DD E0 BC E7 C0 
   2004.410925 1  001       Rx   d 8 05 01 70 10 E5 DD 20 19 
   2004.411906 1  001       Rx   d 8 05 01 E1 A0 63 23 E1 DD 
   2004.411917 1  001       Rx   d 8 05 01 B1 B0 E1 A0 03 4E 
   2004.411923 1  001       Rx   d 8 05 01 E5 C5 A0 07 E2 02 
   2004.411930 1  001       Rx   d 8 05 01 80 0F E5 C5 80 1E 
   2004.411937 1  001       Rx   d 8 05 01 E7 C0 60 10 E5 DD 
   2004.412898 1  001       Rx   d 8 05 01 E0 09 E7 E0 02 DB 
   2004.412909 1  001       Rx   d 8 05 01 E5 8D 00 28 E1 DD 
   2004.412916 1  001       Rx   d 8 05 01 B0 B8 E5 9D 80 28 
   2004.412922 1  001       Rx   d 8 05 01 E2 0E 00 01 E5 C5 
   2004.413891 1  001       Rx   d 2 02 01 
   2004.413900 1  002       Rx   d 6 02 01 00 42 00 00 
   2004.414888 1  001       Rx   d 8 05 01 00 01 E5 C5 80 0C 
   2004.414898 1  001       Rx   d 8 05 01 E7 E0 00 DB E5 DD 
   2004.416403 1  001       Rx   d 8 05 01 B0 11 E5 C5 00 00 
   2004.416459 1  001       Rx   d 8 05 01 E2 03 A0 02 E5 DD 
   2004.416493 1  001       Rx   d 8 05 01 E0 13 E2 0B 00 07 
   2004.416517 1  001       Rx   d 8 05 01 E5 C5 00 0E E7 E0 
   2004.417394 1  001       Rx   d 8 05 01 92 52 E5 DD 00 15 
   2004.417450 1  001       Rx   d 8 05 01 E7 E0 22 5B E5 8D 
   2004.417485 1  001       Rx   d 8 05 01 20 2C E7 E0 81 DE 
   2004.417514 1  001       Rx   d 8 05 01 E2 00 20 01 E5 C5 
   2004.417520 1  001       Rx   d 8 05 01 20 1A E2 0E B0 01 
   2004.418355 1  001       Rx   d 2 02 01 
   2004.418368 1  002       Rx   d 6 02 01 00 42 00 00 
   2004.419349 1  001       Rx   d 8 05 01 E5 C5 B0 14 E1 A0 
   2004.419361 1  001       Rx   d 8 05 01 21 43 E5 8D A0 1C 
   2004.419368 1  001       Rx   d 8 05 01 E2 02 B0 02 E5 C5 
   2004.420369 1  001       Rx   d 8 05 01 70 02 E2 02 20 01 
   2004.420428 1  001       Rx   d 8 05 01 E1 DD 71 B2 E1 82 
   2004.420435 1  001       Rx   d 8 05 01 20 0B E5 C5 80 11 
   2004.420441 1  001       Rx   d 8 05 01 E1 A0 B2 4C E5 C5 
   2004.421363 1  001       Rx   d 8 05 01 20 05 E2 0B B0 04 
   2004.421399 1  001       Rx   d 8 05 01 E5 8D B0 24 E1 A0 
   2004.421406 1  001       Rx   d 8 05 01 20 0A E5 9D B0 20 
   2004.421412 1  001       Rx   d 8 05 01 E2 03 A0 01 E5 C5 
   2004.422324 1  001       Rx   d 2 02 01 
   2004.422332 1  002       Rx   d 6 02 01 00 42 00 00 
   2004.423314 1  001       Rx   d 8 05 01 B0 04 E1 8A 20 02 
   2004.423324 1  001       Rx   d 8 05 01 E5 C5 20 06 E5 DD 
   2004.424356 1  001       Rx   d 8 05 01 30 1B E5 D5 A0 05 
   2004.424366 1  001       Rx   d 8 05 01 E2 01 80 01 E5 9D 
   2004.424373 1  001       Rx   d 8 05 01 20 24 E1 A0 33 A3 
   2004.424379 1  001       Rx   d 8 05 01 E5 C5 60 03 E2 0C 
   2004.425299 1  001       Rx   d 8 05 01 B0 01 E1 DD 61 B6 
   2004.425308 1  001       Rx   d 8 05 01 E1 82 20 0A E5 C5 
   2004.425316 1  001       Rx   d 8 05 01 30 1F E7 E0 A1 51 
   2004.425322 1  001       Rx   d 8 05 01 E5 C5 A0 0A E1 82 
   2004.426291 1  001       Rx   d 8 05 01 C1 8B E5 9D 30 2C 
   2004.426301 1  001       Rx   d 2 02 01 
   2004.426310 1  002       Rx   d 6 02 01 00 42 00 00 
   2004.427282 1  001       Rx   d 8 05 01 E1 A0 A2 41 E5 C5 
   2004.427292 1  001       Rx   d 8 05 01 30 0D E7 E0 B2 D7 
   2004.427299 1  001       Rx   d 8 05 01 E5 C5 C0 05 E7 E0 
   2004.428274 1  001       Rx   d 8 05 01 22 5E E5 C5 B0 0F 
   2004.428284 1  001       Rx   d 8 05 01 E2 0A 30 02 E1 DD 
   2004.428291 1  001       Rx   d 8 05 01 B1 B8 E2 06 C0 07 
   2004.428298 1  001       Rx   d 8 05 01 E5 C5 20 10 E7 E0 
   2004.429266 1  001       Rx   d 8 05 01 70 DE E5 C5 90 1D 
   2004.429276 1  001       Rx   d 8 05 01 E7 E0 21 D0 E5 C5 
   2004.429283 1  001       Rx   d 8 05 01 C0 1B E7 E0 92 DB 
   2004.429289 1  001       Rx   d 8 05 01 E5 C5 30 08 E1 A0 
   2004.430261 1  001       Rx   d 2 02 01 
   2004.430270 1  002       Rx   d 6 02 01 00 42 00 00 
   2004.431251 1  001       Rx   d 8 05 01 61 C1 E5 C5 70 13 
   2004.431261 1  001       Rx   d 8 05 01 E2 01 C0 02 E5 C5 
   2004.431268 1  001       Rx   d 8 05 01 20 17 E7 E0 70 D0 
   2004.432242 1  001       Rx   d 8 05 01 E5 C5 90 1C E7 E0 
   2004.432252 1  001       Rx   d 8 05 01 22 D0 E5 C5 70 19 
   2004.432259 1  001       Rx   d 8 05 01 E2 06 A0 01 E5 C5 
   2004.432266 1  001       Rx   d 8 05 01 20 16 E1 88 B0 0C 
   2004.433235 1  001       Rx   d 8 05 01 E5 C5 B0 0B E7 E0 
   2004.433245 1  001       Rx   d 8 05 01 71 50 E5 C5 70 18 
   2004.433252 1  001       Rx   d 8 05 01 E7 E0 11 5E E5 C5 
   2004.433258 1  001       Rx   d 8 05 01 10 12 E2 06 70 02 
   2004.434233 1  001       Rx   d 2 02 01 
   2004.434242 1  002       Rx   d 6 02 01 00 42 00 00 
   2004.435218 1  001       Rx   d 8 05 01 E5 94 20 04 E1 A0 
   2004.435231 1  001       Rx   d 8 05 01 E3 20 E5 C5 E0 15 
   2004.435239 1  001       Rx   d 8 05 01 E1 8A C0 07 E5 C5 
   2004.436210 1  001       Rx   d 8 05 01 C0 09 E5 94 00 00 
   2004.436220 1  001       Rx   d 8 05 01 E5 D2 10 16 EB FF 
   2004.436227 1  001       Rx   d 8 05 01 FD 88 E2 8D D0 34 
   2004.436234 1  001       Rx   d 8 05 01 EA 00 00 00 E2 8D 
   2004.437729 1  001       Rx   d 8 05 01 D0 34 E8 BD 8F F0 
   2004.437782 1  001       Rx   d 8 05 01 FF FF FF 00 00 01 
   2004.437814 1  001       Rx   d 8 05 01 FD FF 00 01 00 00 
   2004.437843 1  001       Rx   d 8 05 01 E3 A0 10 00 E1 51 
   2004.438691 1  001       Rx   d 2 02 01 
   2004.438701 1  002       Rx   d 6 02 01 00 42 00 00 
   2004.439713 1  001       Rx   d 8 05 01 00 00 0A 00 00 15 
   2004.439765 1  001       Rx   d 8 05 01 E5 1F 10 1C E0 01 
   2004.439800 1  001       Rx   d 8 05 01 10 00 E1 51 00 00 
   2004.440706 1  001       Rx   d 8 05 01 1A 00 00 11 E5 1F 
   2004.440761 1  001       Rx   d 8 05 01 20 30 E3 A0 10 0A 
   2004.440800 1  001       Rx   d 8 05 01 E5 82 10 5C E5 82 
   2004.440806 1  001       Rx   d 8 05 01 00 60 E5 1F 10 38 
   2004.441698 1  001       Rx   d 8 05 01 E5 92 30 68 E3 13 
   2004.441751 1  001       Rx   d 8 05 01 0C 01 1A 00 00 02 
   2004.441786 1  001       Rx   d 8 05 01 E2 41 10 01 E3 51 
   2004.441793 1  001       Rx   d 8 05 01 00 00 1A FF FF F9 
   2004.442659 1  001       Rx   d 2 02 01 
   2004.442671 1  002       Rx   d 6 02 01 00 42 00 00 
   2004.443682 1  001       Rx   d 8 05 01 E5 92 10 6C E3 A0 
   2004.443716 1  001       Rx   d 8 05 01 30 05 E5 82 30 5C 
   2004.444681 1  001       Rx   d 8 05 01 E1 50 00 01 1A 00 
   2004.444691 1  001       Rx   d 8 05 01 00 03 E3 A0 00 00 
   2004.444698 1  001       Rx   d 8 05 01 EA 00 00 02 E3 06 
   2004.444704 1  001       Rx   d 8 05 01 00 11 EA 00 00 00 
   2004.445668 1  001       Rx   d 8 05 01 E3 06 00 12 E1 2F 
   2004.445694 1  001       Rx   d 8 05 01 FF 1E 00 00 00 00 
   2004.445701 1  001       Rx   d 8 05 01 E5 D0 C0 04 E5 D0 
   2004.445707 1  001       Rx   d 8 05 01 00 05 E0 8C 00 00 
   2004.446628 1  001       Rx   d 8 05 01 E3 50 00 40 83 01 
   2004.446646 1  001       Rx   d 2 02 01 
   2004.446651 1  002       Rx   d 6 02 01 00 42 00 00 
   2004.447619 1  001       Rx   d 8 05 01 00 04 81 2F FF 1E 
   2004.447629 1  001       Rx   d 8 05 01 E1 A0 C0 AC E1 C1 
   2004.448610 1  001       Rx   d 8 05 01 C0 B0 E6 FF 00 70 
   2004.448620 1  001       Rx   d 8 05 01 E1 A0 C0 A0 E1 C2 
   2004.448626 1  001       Rx   d 8 05 01 C0 B0 E3 A0 00 00 
   2004.448632 1  001       Rx   d 8 05 01 E1 2F FF 1E 00 00 
   2004.449603 1  001       Rx   d 8 05 01 00 00 00 00 00 00 
   2004.449614 1  001       Rx   d 8 05 01 00 00 00 00 E9 2D 
   2004.449621 1  001       Rx   d 8 05 01 40 70 E1 A0 50 00 
   2004.449629 1  001       Rx   d 8 05 01 E2 4D D0 08 E3 A0 
   2004.450596 1  001       Rx   d 8 05 01 00 00 E5 D5 C0 00 
   2004.450613 1  001       Rx   d 2 02 01 
   2004.450619 1  002       Rx   d 6 02 01 00 42 00 00 
   2004.451586 1  001       Rx   d 8 05 01 E3 5C 00 00 E3 07 
   2004.451597 1  001       Rx   d 8 05 01 C1 F0 0A 00 00 3F 
   2004.451604 1  001       Rx   d 8 05 01 E3 40 C8 00 E3 51 
   2004.452579 1  001       Rx   d 8 05 01 00 00 E7 9C 42 01 
   2004.452589 1  001       Rx   d 8 05 01 E5 84 01 28 E5 84 
   2004.452596 1  001       Rx   d 8 05 01 01 2C E5 84 01 30 
   2004.452602 1  001       Rx   d 8 05 01 E5 84 01 34 E5 84 
   2004.453570 1  001       Rx   d 8 05 01 01 38 E5 84 01 3C 
   2004.453580 1  001       Rx   d 8 05 01 E5 84 01 88 E5 84 
   2004.453587 1  001       Rx   d 8 05 01 00 0C E5 84 00 84 
   2004.453593 1  001       Rx   d 8 05 01 E5 84 00 00 E5 84 
   2004.454562 1  001       Rx   d 2 02 01 
   2004.454572 1  002       Rx   d 6 02 01 00 42 00 00 
   2004.455554 1  001       Rx   d 8 05 01 00 78 E5 84 00 7C 
   2004.455565 1  001       Rx   d 8 05 01 E5 84 00 80 0A 00 
   2004.456546 1  001       Rx   d 8 05 01 00 06 E5 D5 C0 01 
   2004.456556 1  001       Rx   d 8 05 01 E3 A0 69 01 E3 5C 
   2004.456563 1  001       Rx   d 8 05 01 00 00 0A 00 00 08 
   2004.456569 1  001       Rx   d 8 05 01 E3 A0 08 02 EA 00 
   2004.457538 1  001       Rx   d 8 05 01 00 05 01 A0 00 00 
   2004.457548 1  001       Rx   d 8 05 01 E5 D5 C0 01 E3 A0 
   2004.457555 1  001       Rx   d 8 05 01 6C 01 E3 5C 00 00 
   2004.457561 1  001       Rx   d 8 05 01 13 A0 0B 01 0A 00 
   2004.458530 1  001       Rx   d 8 05 01 00 00 EB FF FA 65 
   2004.458540 1  001       Rx   d 2 02 01 
   2004.458545 1  002       Rx   d 6 02 01 00 42 00 00 
   2004.460050 1  001       Rx   d 8 05 01 E3 50 00 00 13 01 
   2004.460106 1  001       Rx   d 8 05 01 00 0F 1A 00 00 1E 
   2004.461042 1  001       Rx   d 8 05 01 E5 D5 C0 02 E3 5C 
   2004.461097 1  001       Rx   d 8 05 01 00 00 03 A0 C0 05 
   2004.461130 1  001       Rx   d 8 05 01 05 84 C1 80 13 A0 
   2004.461156 1  001       Rx   d 8 05 01 C0 0A 15 84 C1 80 
   2004.462034 1  001       Rx   d 8 05 01 E1 A0 00 06 EB FF 
   2004.462089 1  001       Rx   d 8 05 01 FF A0 E3 50 00 00 
   2004.462122 1  001       Rx   d 8 05 01 13 01 00 09 1A 00 
   2004.462149 1  001       Rx   d 8 05 01 00 13 E5 D5 C0 03 
   2004.462995 1  001       Rx   d 8 05 01 E3 00 E0 01 E5 84 
   2004.463006 1  001       Rx   d 2 02 01 
   2004.463012 1  002       Rx   d 6 02 01 00 42 00 00 
   2004.463988 1  001       Rx   d 8 05 01 C0 08 E3 48 E1 14 
   2004.464000 1  001       Rx   d 8 05 01 E5 84 E0 04 E3 A0 
   2004.464007 1  001       Rx   d 8 05 01 C0 02 E5 84 C0 5C 
   2004.465014 1  001       Rx   d 8 05 01 E1 A0 00 05 E2 8D 
   2004.465060 1  001       Rx   d 8 05 01 10 02 E1 A0 20 0D 
   2004.465068 1  001       Rx   d 8 05 01 EB FF FF B0 E3 50 
   2004.465077 1  001       Rx   d 8 05 01 00 00 E1 DD 10 B2 
   2004.466001 1  001       Rx   d 8 05 01 1A 00 00 05 E1 DD 
   2004.466042 1  001       Rx   d 8 05 01 C0 B0 E1 C4 15 B8 
   2004.466049 1  001       Rx   d 8 05 01 E1 C4 C5 BA E5 94 
   2004.466056 1  001       Rx   d 8 05 01 C1 84 E5 8D C0 04 
   2004.466963 1  001       Rx   d 2 02 01 
   2004.466973 1  002       Rx   d 6 02 01 00 42 00 00 
   2004.468001 1  001       Rx   d 8 05 01 EA FF FF FF E2 8D 
   2004.468011 1  001       Rx   d 8 05 01 D0 08 E8 BD 80 70 
   2004.468984 1  001       Rx   d 8 05 01 00 00 00 00 00 00 
   2004.468994 1  001       Rx   d 8 05 01 00 00 E9 2D 43 F8 
   2004.469001 1  001       Rx   d 8 05 01 E3 A0 60 00 E1 B0 
   2004.469008 1  001       Rx   d 8 05 01 50 00 13 A0 90 0C 
   2004.469938 1  001       Rx   d 8 05 01 0A 00 00 18 E1 A0 
   2004.469948 1  001       Rx   d 8 05 01 40 06 E3 08 70 34 
   2004.469954 1  001       Rx   d 8 05 01 E3 A0 80 06 E3 40 
   2004.469961 1  001       Rx   d 8 05 01 78 03 01 A0 00 00 
   2004.470931 1  001       Rx   d 8 05 01 01 A0 00 00 01 A0 
   2004.470941 1  001       Rx   d 2 02 01 
   2004.470946 1  002       Rx   d 6 02 01 00 42 00 00 
   2004.471922 1  001       Rx   d 8 05 01 00 00 E1 0C 79 84 
   2004.471933 1  001       Rx   d 8 05 01 E1 00 58 84 E5 8C 
   2004.471939 1  001       Rx   d 8 05 01 60 08 E5 8C 60 0C 
   2004.472914 1  001       Rx   d 8 05 01 E1 A0 10 04 E5 8C 
   2004.472924 1  001       Rx   d 8 05 01 60 04 EB FF FF A0 
   2004.472930 1  001       Rx   d 8 05 01 E2 84 C0 01 E6 EF 
   2004.472936 1  001       Rx   d 8 05 01 40 7C E3 54 00 02 
   2004.473906 1  001       Rx   d 8 05 01 AA 00 00 02 E3 50 
   2004.473916 1  001       Rx   d 8 05 01 00 00 0A FF FF F2 
   2004.473922 1  001       Rx   d 8 05 01 E8 BD 83 F8 E3 50 
   2004.473929 1  001       Rx   d 8 05 01 00 00 18 BD 83 F8 
   2004.474899 1  001       Rx   d 2 02 01 
   2004.474907 1  002       Rx   d 6 02 01 00 42 00 00 
   2004.475890 1  001       Rx   d 8 05 01 E5 87 50 00 E8 BD 
   2004.475901 1  001       Rx   d 8 05 01 83 F8 E3 01 00 10 
   2004.475908 1  001       Rx   d 8 05 01 E8 BD 83 F8 E3 50 
   2004.476882 1  001       Rx   d 8 05 01 00 00 E3 A0 C0 00 
   2004.476892 1  001       Rx   d 8 05 01 0A 00 00 05 01 A0 
   2004.476899 1  001       Rx   d 8 05 01 00 00 E2 00 10 01 
   2004.476905 1  001       Rx   d 8 05 01 E0 81 C0 0C E1 B0 
   2004.477874 1  001       Rx   d 8 05 01 00 A0 E6 EF C0 7C 
   2004.477884 1  001       Rx   d 8 05 01 1A FF FF FA E1 A0 
   2004.477891 1  001       Rx   d 8 05 01 00 0C E1 2F FF 1E 
   2004.477897 1  001       Rx   d 8 05 01 00 00 00 00 E3 08 
   2004.478867 1  001       Rx   d 2 02 01 
   2004.478876 1  002       Rx   d 6 02 01 00 42 00 00 
   2004.479860 1  001       Rx   d 8 05 01 C0 34 E3 40 C8 03 
   2004.479870 1  001       Rx   d 8 05 01 E9 2D 40 10 E5 9C 
   2004.479877 1  001       Rx   d 8 05 01 10 00 E3 51 00 00 
   2004.480858 1  001       Rx   d 8 05 01 03 01 00 01 08 BD 
   2004.480876 1  001       Rx   d 8 05 01 80 10 E5 D1 C0 0C 
   2004.480884 1  001       Rx   d 8 05 01 E1 5C 00 00 D3 01 
   2004.480891 1  001       Rx   d 8 05 01 00 02 D8 BD 80 10 
   2004.482340 1  001       Rx   d 8 05 01 E5 91 20 10 E1 A0 
   2004.482353 1  001       Rx   d 8 05 01 C2 00 E3 07 31 F0 
   2004.482360 1  001       Rx   d 8 05 01 E0 8C C1 80 E0 82 
   2004.482367 1  001       Rx   d 8 05 01 00 0C E3 40 38 00 
   2004.482846 1  001       Rx   d 2 02 01 
   2004.482856 1  002       Rx   d 6 02 01 00 42 00 00 
   2004.484323 1  001       Rx   d 8 05 01 E5 D0 C0 0D E5 D0 
   2004.484333 1  001       Rx   d 8 05 01 20 0E E1 A0 E1 0C 
   2004.484341 1  001       Rx   d 8 05 01 E7 93 32 0C E0 8E 
   2004.485315 1  001       Rx   d 8 05 01 C0 8C E0 83 31 02 
   2004.485325 1  001       Rx   d 8 05 01 E0 8C E0 01 E5 93 
   2004.485332 1  001       Rx   d 8 05 01 30 6C E3 13 00 06 
   2004.485338 1  001       Rx   d 8 05 01 13 01 00 03 18 BD 
   2004.486308 1  001       Rx   d 8 05 01 80 10 E3 52 00 02 
   2004.486319 1  001       Rx   d 8 05 01 10 82 C0 0C 05 DE 
   2004.486325 1  001       Rx   d 8 05 01 C0 04 10 81 C0 0C 
   2004.486331 1  001       Rx   d 8 05 01 05 DE 10 05 02 6C 
   2004.487301 1  001       Rx   d 2 02 01 
   2004.487310 1  002       Rx   d 6 02 01 00 42 00 00 
   2004.488291 1  001       Rx   d 8 05 01 C0 40 15 DC 40 04 
   2004.488302 1  001       Rx   d 8 05 01 00 4C 40 01 E5 90 
   2004.488308 1  001       Rx   d 8 05 01 00 10 EB FF FF CD 
   2004.489282 1  001       Rx   d 8 05 01 E1 54 00 00 33 01 
   2004.489293 1  001       Rx   d 8 05 01 00 04 23 A0 00 00 
   2004.489299 1  001       Rx   d 8 05 01 E8 BD 80 10 00 00 
   2004.489306 1  001       Rx   d 8 05 01 00 00 00 00 00 00 
   2004.490328 1  001       Rx   d 8 05 01 E5 D0 C0 0C E3 5C 
   2004.490338 1  001       Rx   d 8 05 01 00 00 E1 A0 04 0C 
   2004.490344 1  001       Rx   d 8 05 01 13 80 00 01 E1 2F 
   2004.490350 1  001       Rx   d 8 05 01 FF 1E 00 00 00 00 
   2004.491266 1  001       Rx   d 2 02 01 
   2004.491286 1  002       Rx   d 6 02 01 00 42 00 00 
   2004.492258 1  001       Rx   d 8 05 01 00 00 00 00 00 00 
   2004.492268 1  001       Rx   d 8 05 01 00 00 E5 D0 C0 04 
   2004.493250 1  001       Rx   d 8 05 01 E1 A0 C4 0C E5 81 
   2004.493260 1  001       Rx   d 8 05 01 C0 00 E5 D0 20 02 
   2004.493267 1  001       Rx   d 8 05 01 E3 52 00 00 13 8C 
   2004.493273 1  001       Rx   d 8 05 01 C0 20 15 81 C0 00 
   2004.494242 1  001       Rx   d 8 05 01 E5 D0 C0 03 E3 5C 
   2004.494252 1  001       Rx   d 8 05 01 00 01 05 91 C0 00 
   2004.494258 1  001       Rx   d 8 05 01 03 8C C0 10 05 81 
   2004.494264 1  001       Rx   d 8 05 01 C0 00 E5 D0 20 05 
   2004.495236 1  001       Rx   d 8 05 01 E3 A0 C0 00 E3 52 
   2004.495247 1  001       Rx   d 2 02 01 
   2004.495251 1  002       Rx   d 6 02 01 00 42 00 00 
   2004.496229 1  001       Rx   d 8 05 01 00 01 15 D0 20 0E 
   2004.496240 1  001       Rx   d 8 05 01 0A 00 00 08 E3 52 
   2004.496247 1  001       Rx   d 8 05 01 00 00 05 D0 20 00 
   2004.498506 1  001       Rx   d 8 05 01 1A 00 00 08 E3 01 
   2004.498516 1  001       Rx   d 8 05 01 C0 07 E3 52 00 01 
   2004.498523 1  001       Rx   d 8 05 01 05 91 20 00 0A 00 
   2004.498529 1  001       Rx   d 8 05 01 00 09 E5 D0 00 01 
   2004.498536 1  001       Rx   d 8 05 01 EA 00 00 0A E5 91 
   2004.498542 1  001       Rx   d 8 05 01 20 00 E3 82 20 08 
   2004.498549 1  001       Rx   d 8 05 01 E5 81 20 00 E5 D0 
   2004.498555 1  001       Rx   d 8 05 01 20 00 E3 52 00 01 
   2004.499713 1  001       Rx   d 2 02 01 
   2004.499740 1  002       Rx   d 6 02 01 00 42 00 00 
   2004.500199 1  001       Rx   d 8 05 01 15 D0 00 01 1A 00 
   2004.501191 1  001       Rx   d 8 05 01 00 03 E5 91 20 00 
   2004.501218 1  001       Rx   d 8 05 01 E3 82 20 02 E5 81 
   2004.501225 1  001       Rx   d 8 05 01 20 00 E5 D0 00 01 
   2004.501232 1  001       Rx   d 8 05 01 E3 50 00 01 05 91 
   2004.502194 1  001       Rx   d 8 05 01 00 00 03 80 00 01 
   2004.502222 1  001       Rx   d 8 05 01 05 81 00 00 E1 A0 
   2004.502230 1  001       Rx   d 8 05 01 00 0C E1 2F FF 1E 
   2004.502237 1  001       Rx   d 8 05 01 00 00 00 00 E5 D0 
   2004.503205 1  001       Rx   d 8 05 01 C0 06 E5 D0 10 07 
   2004.503236 1  001       Rx   d 8 05 01 E3 5C 00 00 E2 01 
   2004.503244 1  001       Rx   d 2 02 01 
   2004.503248 1  002       Rx   d 6 02 01 00 42 00 00 
   2004.504916 1  001       Rx   d 8 05 01 00 07 0A 00 00 02 
   2004.504946 1  001       Rx   d 8 05 01 E2 5C C0 02 03 80 
   2004.505654 1  001       Rx   d 8 05 01 00 10 11 2F FF 1E 
   2004.505680 1  001       Rx   d 8 05 01 E3 80 00 08 E1 2F 
   2004.505688 1  001       Rx   d 8 05 01 FF 1E 00 00 00 00 
   2004.505695 1  001       Rx   d 8 05 01 00 00 00 00 E9 2D 
   2004.506909 1  001       Rx   d 8 05 01 40 70 E2 4D D0 08 
   2004.506939 1  001       Rx   d 8 05 01 E1 A0 40 00 EB FF 
   2004.506946 1  001       Rx   d 8 05 01 FF 8F E1 B0 20 00 
   2004.506952 1  001       Rx   d 8 05 01 1A 00 00 2C E3 08 
   2004.507642 1  001       Rx   d 8 05 01 30 34 E3 40 38 03 
   2004.507662 1  001       Rx   d 2 02 01 
   2004.507668 1  002       Rx   d 6 02 01 00 42 00 00 
   2004.508878 1  001       Rx   d 8 05 01 E5 93 C0 00 E5 9C 
   2004.508909 1  001       Rx   d 8 05 01 00 10 E1 A0 E2 04 
   2004.509622 1  001       Rx   d 8 05 01 E0 8E C1 84 E0 80 
   2004.509650 1  001       Rx   d 8 05 01 50 0C E5 D5 00 0D 
   2004.509658 1  001       Rx   d 8 05 01 E3 07 11 F0 E3 40 
   2004.509665 1  001       Rx   d 8 05 01 18 00 E5 D5 C0 0E 
   2004.510614 1  001       Rx   d 8 05 01 E7 91 12 00 E1 A0 
   2004.510642 1  001       Rx   d 8 05 01 41 0C E0 81 00 04 
   2004.510649 1  001       Rx   d 8 05 01 E1 D5 C0 BA E5 80 
   2004.510656 1  001       Rx   d 8 05 01 C0 60 E1 A0 00 05 
   2004.511442 1  001       Rx   d 8 05 01 EB FF FF A7 E0 84 
   2004.511517 1  001       Rx   d 2 02 01 
   2004.511527 1  002       Rx   d 6 02 01 00 42 00 00 
   2004.512599 1  001       Rx   d 8 05 01 C0 01 E2 8C 60 10 
   2004.513636 1  001       Rx   d 8 05 01 E5 86 01 0C E1 A0 
   2004.513677 1  001       Rx   d 8 05 01 10 0D E1 A0 00 05 
   2004.513684 1  001       Rx   d 8 05 01 EB FF FF A9 E1 B0 
   2004.513691 1  001       Rx   d 8 05 01 20 00 1A 00 00 12 
   2004.514582 1  001       Rx   d 8 05 01 E5 9D C0 00 E5 86 
   2004.514597 1  001       Rx   d 8 05 01 C0 00 E1 A0 00 05 
   2004.514604 1  001       Rx   d 8 05 01 EB FF FF CF E5 86 
   2004.514610 1  001       Rx   d 8 05 01 00 0C E3 A0 C0 0F 
   2004.515575 1  001       Rx   d 8 05 01 E5 86 C0 24 E5 D5 
   2004.515589 1  001       Rx   d 8 05 01 C0 08 E5 86 C0 18 
   2004.515596 1  001       Rx   d 2 02 01 
   2004.515601 1  002       Rx   d 6 02 01 00 42 00 00 
   2004.516565 1  001       Rx   d 8 05 01 E5 D5 C0 14 E3 5C 
   2004.516578 1  001       Rx   d 8 05 01 00 00 13 A0 C0 09 
   2004.517557 1  001       Rx   d 8 05 01 15 86 C0 3C E5 D5 
   2004.517570 1  001       Rx   d 8 05 01 C0 0D E1 A0 01 8C 
   2004.517577 1  001       Rx   d 8 05 01 E0 80 C1 0C E0 84 
   2004.517584 1  001       Rx   d 8 05 01 C0 0C E0 83 C0 0C 
   2004.518549 1  001       Rx   d 8 05 01 E5 8C 50 04 E1 A0 
   2004.518562 1  001       Rx   d 8 05 01 00 02 E2 8D D0 08 
   2004.518570 1  001       Rx   d 8 05 01 E8 BD 80 70 00 00 
   2004.518577 1  001       Rx   d 8 05 01 00 00 00 00 00 00 
   2004.519542 1  001       Rx   d 8 05 01 E3 50 00 00 03 A0 
   2004.519573 1  001       Rx   d 2 02 01 
   2004.519578 1  002       Rx   d 6 02 01 00 42 00 00 
   2004.521297 1  001       Rx   d 8 05 01 0C 63 01 2F FF 1E 
   2004.521343 1  001       Rx   d 8 05 01 E5 D0 C0 00 E2 5C 
   2004.521524 1  001       Rx   d 8 05 01 C0 01 03 A0 C4 FE 
   2004.521535 1  001       Rx   d 8 05 01 0A 00 00 28 E2 5C 
   2004.521541 1  001       Rx   d 8 05 01 C0 01 E3 A0 C4 FE 
   2004.521548 1  001       Rx   d 8 05 01 1A 00 00 23 E3 A0 
   2004.522519 1  001       Rx   d 8 05 01 3C 1F E5 9C 10 00 
   2004.522546 1  001       Rx   d 8 05 01 E3 81 1C 01 E5 8C 
   2004.522554 1  001       Rx   d 8 05 01 10 00 E5 90 10 04 
   2004.522561 1  001       Rx   d 8 05 01 E5 8C 10 80 E5 90 
   2004.523535 1  001       Rx   d 8 05 01 10 08 E5 8C 10 84 
   2004.523613 1  001       Rx   d 2 02 01 
   2004.523619 1  002       Rx   d 6 02 01 00 42 00 00 
   2004.524503 1  001       Rx   d 8 05 01 E5 90 10 0C E5 8C 
   2004.524521 1  001       Rx   d 8 05 01 10 8C E5 90 10 10 
   2004.525494 1  001       Rx   d 8 05 01 E5 8C 10 90 E5 90 
   2004.525553 1  001       Rx   d 8 05 01 10 14 E5 8C 10 A8 
   2004.525561 1  001       Rx   d 8 05 01 E5 90 10 18 E5 8C 
   2004.525568 1  001       Rx   d 8 05 01 10 AC E5 8C 30 28 
   2004.526488 1  001       Rx   d 8 05 01 E5 9C 10 20 E2 01 
   2004.526523 1  001       Rx   d 8 05 01 1C 1F E5 8C 10 20 
   2004.526568 1  001       Rx   d 8 05 01 E5 90 10 1C E5 9C 
   2004.526579 1  001       Rx   d 8 05 01 20 18 E1 82 14 01 
   2004.527520 1  001       Rx   d 8 05 01 E5 8C 10 18 E5 9C 
   2004.527558 1  001       Rx   d 2 02 01 
   2004.527564 1  002       Rx   d 6 02 01 00 42 00 00 
   2004.528967 1  001       Rx   d 8 05 01 10 10 E3 C1 1C 03 
   2004.528981 1  001       Rx   d 8 05 01 E5 8C 10 10 E5 D0 
   2004.529959 1  001       Rx   d 8 05 01 00 01 E5 9C 10 10 
   2004.529994 1  001       Rx   d 8 05 01 E1 81 04 00 E5 8C 
   2004.530002 1  001       Rx   d 8 05 01 00 10 E5 9C 00 00 
   2004.530023 1  001       Rx   d 8 05 01 E3 C0 0C 01 E5 8C 
   2004.530950 1  001       Rx   d 8 05 01 00 00 E3 A0 00 00 
   2004.530972 1  001       Rx   d 8 05 01 E1 2F FF 1E E3 06 
   2004.530980 1  001       Rx   d 8 05 01 03 01 E1 2F FF 1E 
   2004.530987 1  001       Rx   d 8 05 01 E3 A0 30 1F E5 9C 
   2004.531942 1  001       Rx   d 8 05 01 10 00 E3 81 10 01 
   2004.531957 1  001       Rx   d 2 02 01 
   2004.531962 1  002       Rx   d 6 02 01 00 42 00 00 
   2004.533015 1  001       Rx   d 8 05 01 E5 8C 10 00 E5 90 
   2004.533073 1  001       Rx   d 8 05 01 10 04 E5 8C 10 40 
   2004.534170 1  001       Rx   d 8 05 01 E5 90 10 08 E5 8C 
   2004.534200 1  001       Rx   d 8 05 01 10 44 E5 90 10 0C 
   2004.534208 1  001       Rx   d 8 05 01 E5 8C 10 4C E5 90 
   2004.534215 1  001       Rx   d 8 05 01 10 10 E5 8C 10 50 
   2004.534918 1  001       Rx   d 8 05 01 E5 90 10 14 E5 8C 
   2004.534947 1  001       Rx   d 8 05 01 10 68 E5 90 10 18 
   2004.534954 1  001       Rx   d 8 05 01 E5 8C 10 6C E5 8C 
   2004.534961 1  001       Rx   d 8 05 01 30 28 E5 9C 10 20 
   2004.535982 1  001       Rx   d 8 05 01 E2 01 10 1F E5 8C 
   2004.536016 1  001       Rx   d 2 02 01 
   2004.536022 1  002       Rx   d 6 02 01 00 42 00 00 
   2004.536907 1  001       Rx   d 8 05 01 10 20 E5 9C 10 18 
   2004.536933 1  001       Rx   d 8 05 01 E5 90 20 1C E1 82 
   2004.537904 1  001       Rx   d 8 05 01 10 01 E5 8C 10 18 
   2004.537931 1  001       Rx   d 8 05 01 E5 9C 10 10 E3 C1 
   2004.537939 1  001       Rx   d 8 05 01 10 03 E5 8C 10 10 
   2004.537945 1  001       Rx   d 8 05 01 E5 9C 10 10 E5 D0 
   2004.538886 1  001       Rx   d 8 05 01 20 01 E1 82 10 01 
   2004.538914 1  001       Rx   d 8 05 01 E5 8C 10 10 E5 9C 
   2004.538922 1  001       Rx   d 8 05 01 10 10 E3 C1 10 10 
   2004.538928 1  001       Rx   d 8 05 01 E5 8C 10 10 E5 D0 
   2004.539881 1  001       Rx   d 8 05 01 00 02 E3 50 00 00 
   2004.539914 1  001       Rx   d 2 02 01 
   2004.539920 1  002       Rx   d 6 02 01 00 42 00 00 
   2004.540961 1  001       Rx   d 8 05 01 15 9C 00 10 13 80 
   2004.540989 1  001       Rx   d 8 05 01 00 10 15 8C 00 10 
   2004.541864 1  001       Rx   d 8 05 01 E5 9C 00 00 E3 C0 
   2004.541896 1  001       Rx   d 8 05 01 00 01 E5 8C 00 00 
   2004.541933 1  001       Rx   d 8 05 01 E3 A0 00 00 E1 2F 
   2004.541942 1  001       Rx   d 8 05 01 FF 1E E3 51 00 00 
   2004.542878 1  001       Rx   d 8 05 01 03 0A 00 18 01 2F 
   2004.542900 1  001       Rx   d 8 05 01 FF 1E E3 50 00 0F 
   2004.542908 1  001       Rx   d 8 05 01 83 0A 00 02 81 2F 
   2004.542915 1  001       Rx   d 8 05 01 FF 1E E3 A0 C0 01 
   2004.543844 1  001       Rx   d 8 05 01 E0 81 12 80 E1 A0 
   2004.543857 1  001       Rx   d 2 02 01 
   2004.543862 1  002       Rx   d 6 02 01 00 42 00 00 
   2004.544836 1  001       Rx   d 8 05 01 C0 1C E5 91 10 1C 
   2004.544847 1  001       Rx   d 8 05 01 E3 0F 00 00 E3 4F 
   2004.546377 1  001       Rx   d 8 05 01 0F FF E3 51 00 00 
   2004.546433 1  001       Rx   d 8 05 01 1A 00 00 06 E5 80 
   2004.546467 1  001       Rx   d 8 05 01 C0 4C E5 80 C0 E4 
   2004.546473 1  001       Rx   d 8 05 01 E5 80 C0 F4 E5 80 
   2004.546821 1  001       Rx   d 8 05 01 C1 04 E5 80 C1 14 
   2004.546833 1  001       Rx   d 8 05 01 E3 A0 00 00 E1 2F 
   2004.546839 1  001       Rx   d 8 05 01 FF 1E E3 51 00 20 
   2004.546846 1  001       Rx   d 8 05 01 03 0A 00 09 01 2F 
   2004.547847 1  001       Rx   d 8 05 01 FF 1E E3 11 00 02 
   2004.547859 1  001       Rx   d 2 02 01 
   2004.547864 1  002       Rx   d 6 02 01 00 42 00 00 
   2004.549475 1  001       Rx   d 8 05 01 15 80 C0 DC 05 80 
   2004.549486 1  001       Rx   d 8 05 01 C0 E4 E3 11 00 04 
   2004.550466 1  001       Rx   d 8 05 01 05 80 C0 F4 15 80 
   2004.550477 1  001       Rx   d 8 05 01 C0 EC E3 11 00 08 
   2004.550484 1  001       Rx   d 8 05 01 05 80 C1 04 15 80 
   2004.550490 1  001       Rx   d 8 05 01 C0 FC E3 11 00 10 
   2004.551459 1  001       Rx   d 8 05 01 05 80 C1 14 15 80 
   2004.551469 1  001       Rx   d 8 05 01 C1 0C E5 80 C0 44 
   2004.551476 1  001       Rx   d 8 05 01 E3 A0 00 00 E1 2F 
   2004.551483 1  001       Rx   d 8 05 01 FF 1E 00 00 00 00 
   2004.552275 1  001       Rx   d 8 05 01 E3 51 00 00 E9 2D 
   2004.552286 1  001       Rx   d 2 02 01 
   2004.552291 1  002       Rx   d 6 02 01 00 42 00 00 
   2004.553441 1  001       Rx   d 8 05 01 41 F0 0A 00 00 48 
   2004.553452 1  001       Rx   d 8 05 01 E1 A0 22 80 E0 81 
   2004.554438 1  001       Rx   d 8 05 01 C0 02 E2 42 E7 02 
   2004.554448 1  001       Rx   d 8 05 01 E5 9C 20 00 E5 8E 
   2004.554455 1  001       Rx   d 8 05 01 20 00 E5 9C 20 04 
   2004.554461 1  001       Rx   d 8 05 01 E5 8E 20 04 E1 DC 
   2004.555429 1  001       Rx   d 8 05 01 20 BE E1 CE 20 BA 
   2004.555439 1  001       Rx   d 8 05 01 E1 DC 21 B0 E1 CE 
   2004.555445 1  001       Rx   d 8 05 01 20 B8 E5 DC 30 0A 
   2004.555454 1  001       Rx   d 8 05 01 E3 0F 60 94 E3 4F 
   2004.556244 1  001       Rx   d 8 05 01 6F FF E5 DC 40 09 
   2004.556255 1  001       Rx   d 2 02 01 
   2004.556260 1  002       Rx   d 6 02 01 00 42 00 00 
   2004.557413 1  001       Rx   d 8 05 01 E2 03 30 01 E5 DC 
   2004.557425 1  001       Rx   d 8 05 01 20 08 E1 A0 54 03 
   2004.558228 1  001       Rx   d 8 05 01 E5 DC 80 0B E2 04 
   2004.558240 1  001       Rx   d 8 05 01 40 03 E2 02 20 03 
   2004.558247 1  001       Rx   d 8 05 01 E5 DC 70 0C E2 08 
   2004.558253 1  001       Rx   d 8 05 01 30 03 E1 85 57 02 
   2004.560257 1  001       Rx   d 8 05 01 E2 07 20 03 E5 DC 
   2004.560268 1  001       Rx   d 8 05 01 80 0D E1 85 46 04 
   2004.560274 1  001       Rx   d 8 05 01 E1 84 31 83 E2 08 
   2004.560281 1  001       Rx   d 8 05 01 40 01 E3 0F 70 54 
   2004.560288 1  001       Rx   d 8 05 01 E1 83 20 82 E3 4F 
   2004.560294 1  001       Rx   d 2 02 01 
   2004.560298 1  002       Rx   d 6 02 01 00 42 00 00 
   2004.561240 1  001       Rx   d 8 05 01 7F FF E1 84 30 02 
   2004.561250 1  001       Rx   d 8 05 01 E5 8E 30 10 E1 A0 
   2004.562195 1  001       Rx   d 8 05 01 81 00 E1 DC 51 B4 
   2004.562205 1  001       Rx   d 8 05 01 E1 A0 20 A0 E1 CE 
   2004.562212 1  001       Rx   d 8 05 01 51 B6 E3 C8 40 1F 
   2004.562218 1  001       Rx   d 8 05 01 E1 DC 51 B2 E0 44 
   2004.563187 1  001       Rx   d 8 05 01 40 08 E1 CE 51 B4 
   2004.563197 1  001       Rx   d 8 05 01 E3 C0 80 03 E1 DC 
   2004.563203 1  001       Rx   d 8 05 01 51 B8 E3 C2 30 03 
   2004.563210 1  001       Rx   d 8 05 01 E1 CE 51 BA E0 86 
   2004.564195 1  001       Rx   d 8 05 01 20 03 E1 DC 51 B6 
   2004.564209 1  001       Rx   d 2 02 01 
   2004.564220 1  002       Rx   d 6 02 01 00 42 00 00 
   2004.565848 1  001       Rx   d 8 05 01 E3 A0 60 0F E1 CE 
   2004.565859 1  001       Rx   d 8 05 01 51 B8 E2 84 30 1C 
   2004.566162 1  001       Rx   d 8 05 01 E5 92 50 00 E0 87 
   2004.566173 1  001       Rx   d 8 05 01 40 08 E1 A0 71 80 
   2004.566180 1  001       Rx   d 8 05 01 E1 C5 53 16 E5 82 
   2004.566186 1  001       Rx   d 8 05 01 50 00 E3 A0 80 04 
   2004.567826 1  001       Rx   d 8 05 01 E5 92 60 00 E3 C7 
