   7.540826 2  001       Rx   d 7 11 FF 00 00 00 00 01 
   7.541819 2  001       Rx   d 2 03 FF 
   7.541841 2  001       Rx   d 2 01 FF 
   7.541846 2  600       Rx   d 8 2B 25 10 01 13 03 00 00 
   7.541854 2  001       Rx   d 2 01 FF 
   7.541858 2  601       Rx   d 8 2B 25 10 01 13 03 00 00 
   7.542811 2  001       Rx   d 2 01 FF 
   7.542819 2  602       Rx   d 8 2B 25 10 01 13 03 00 00 
   7.542826 2  001       Rx   d 2 01 FF 
   7.542830 2  603       Rx   d 8 2B 25 10 01 13 03 00 00 
   7.542848 2  001       Rx   d 2 01 FF 
   7.543872 2  604       Rx   d 8 2B 25 10 01 13 03 00 00 
   7.543887 2  001       Rx   d 2 01 FF 
   7.543891 2  605       Rx   d 8 2B 25 10 01 13 03 00 00 
   7.543898 2  001       Rx   d 2 01 FF 
   7.543902 2  606       Rx   d 8 2B 25 10 01 13 03 00 00 
   7.544802 2  001       Rx   d 2 01 FF 
   7.544809 2  607       Rx   d 8 2B 25 10 01 13 03 00 00 
   7.544818 2  001       Rx   d 2 01 FF 
   7.544822 2  608       Rx   d 8 2B 25 10 01 13 03 00 00 
   7.544830 2  001       Rx   d 2 01 FF 
   7.545791 2  609       Rx   d 8 2B 25 10 01 13 03 00 00 
   7.545801 2  001       Rx   d 2 01 FF 
   7.545804 2  60A       Rx   d 8 2B 25 10 01 13 03 00 00 
   7.545815 2  001       Rx   d 2 01 FF 
   7.545819 2  60B       Rx   d 8 2B 25 10 01 13 03 00 00 
   7.545829 2  001       Rx   d 2 01 FF 
   7.546784 2  60C       Rx   d 8 2B 25 10 01 13 03 00 00 
   7.546799 2  001       Rx   d 2 01 FF 
   7.546804 2  60D       Rx   d 8 2B 25 10 01 13 03 00 00 
   7.546811 2  001       Rx   d 2 01 FF 
   7.548273 2  60E       Rx   d 8 2B 25 10 01 13 03 00 00 
   7.548289 2  001       Rx   d 2 01 FF 
   7.548293 2  60F       Rx   d 8 2B 25 10 01 13 03 00 00 
   7.548300 2  001       Rx   d 2 01 FF 
   7.548304 2  610       Rx   d 8 2B 25 10 01 13 03 00 00 
   7.548311 2  001       Rx   d 2 01 FF 
   7.549267 2  611       Rx   d 8 2B 25 10 01 13 03 00 00 
   7.549281 2  001       Rx   d 2 01 FF 
   7.549285 2  612       Rx   d 8 2B 25 10 01 13 03 00 00 
   7.549302 2  001       Rx   d 2 01 FF 
   7.549306 2  613       Rx   d 8 2B 25 10 01 13 03 00 00 
   7.550261 2  001       Rx   d 2 01 FF 
   7.550271 2  614       Rx   d 8 2B 25 10 01 13 03 00 00 
   7.550277 2  001       Rx   d 2 01 FF 
   7.550280 2  615       Rx   d 8 2B 25 10 01 13 03 00 00 
   7.550287 2  001       Rx   d 2 01 FF 
   7.551254 2  616       Rx   d 8 2B 25 10 01 13 03 00 00 
   7.551269 2  001       Rx   d 2 01 FF 
   7.551275 2  617       Rx   d 8 2B 25 10 01 13 03 00 00 
   7.551295 2  001       Rx   d 2 01 FF 
   7.551299 2  618       Rx   d 8 2B 25 10 01 13 03 00 00 
   7.551781 2  001       Rx   d 2 01 FF 
   7.551787 2  619       Rx   d 8 2B 25 10 01 13 03 00 00 
   7.552246 2  001       Rx   d 2 01 FF 
   7.552253 2  61A       Rx   d 8 2B 25 10 01 13 03 00 00 
   7.552260 2  001       Rx   d 2 01 FF 
   7.553242 2  61B       Rx   d 8 2B 25 10 01 13 03 00 00 
   7.553271 2  001       Rx   d 2 01 FF 
   7.553275 2  61C       Rx   d 8 2B 25 10 01 13 03 00 00 
   7.553284 2  001       Rx   d 2 01 FF 
   7.553288 2  61D       Rx   d 8 2B 25 10 01 13 03 00 00 
   7.554234 2  001       Rx   d 2 01 FF 
   7.554242 2  61E       Rx   d 8 2B 25 10 01 13 03 00 00 
   7.554248 2  001       Rx   d 2 01 FF 
   7.554251 2  61F       Rx   d 8 2B 25 10 01 13 03 00 00 
   7.554258 2  001       Rx   d 2 01 FF 
   7.555226 2  620       Rx   d 8 2B 25 10 01 13 03 00 00 
   7.555236 2  001       Rx   d 2 01 FF 
   7.555239 2  621       Rx   d 8 2B 25 10 01 13 03 00 00 
   7.555246 2  001       Rx   d 2 01 FF 
   7.555249 2  622       Rx   d 8 2B 25 10 01 13 03 00 00 
   7.556222 2  001       Rx   d 2 01 FF 
   7.556229 2  623       Rx   d 8 2B 25 10 01 13 03 00 00 
   7.556250 2  001       Rx   d 2 01 FF 
   7.556253 2  624       Rx   d 8 2B 25 10 01 13 03 00 00 
   7.556260 2  001       Rx   d 2 01 FF 
   7.557213 2  625       Rx   d 8 2B 25 10 01 13 03 00 00 
   7.557224 2  001       Rx   d 2 01 FF 
   7.557230 2  626       Rx   d 8 2B 25 10 01 13 03 00 00 
   7.557237 2  001       Rx   d 2 01 FF 
   7.557241 2  627       Rx   d 8 2B 25 10 01 13 03 00 00 
   7.557248 2  001       Rx   d 2 01 FF 
   7.558207 2  628       Rx   d 8 2B 25 10 01 13 03 00 00 
   7.558221 2  001       Rx   d 2 01 FF 
   7.558224 2  629       Rx   d 8 2B 25 10 01 13 03 00 00 
   7.558231 2  001       Rx   d 2 01 FF 
   7.559236 2  62A       Rx   d 8 2B 25 10 01 13 03 00 00 
   7.559250 2  001       Rx   d 2 01 FF 
   7.559254 2  62B       Rx   d 8 2B 25 10 01 13 03 00 00 
   7.559261 2  001       Rx   d 2 01 FF 
   7.559264 2  62C       Rx   d 8 2B 25 10 01 13 03 00 00 
   7.559271 2  001       Rx   d 2 01 FF 
   7.560207 2  62D       Rx   d 8 2B 25 10 01 13 03 00 00 
   7.560221 2  001       Rx   d 2 01 FF 
   7.560225 2  62E       Rx   d 8 2B 25 10 01 13 03 00 00 
   7.560235 2  001       Rx   d 2 01 FF 
   7.560239 2  62F       Rx   d 8 2B 25 10 01 13 03 00 00 
   7.561192 2  001       Rx   d 2 01 FF 
   7.561224 2  630       Rx   d 8 2B 25 10 01 13 03 00 00 
   7.561235 2  001       Rx   d 2 01 FF 
   7.561241 2  631       Rx   d 8 2B 25 10 01 13 03 00 00 
   7.561249 2  001       Rx   d 2 01 FF 
   7.562183 2  632       Rx   d 8 2B 25 10 01 13 03 00 00 
   7.562199 2  001       Rx   d 2 01 FF 
   7.562204 2  633       Rx   d 8 2B 25 10 01 13 03 00 00 
   7.562211 2  001       Rx   d 2 01 FF 
   7.562215 2  634       Rx   d 8 2B 25 10 01 13 03 00 00 
   7.563175 2  001       Rx   d 2 01 FF 
   7.563184 2  635       Rx   d 8 2B 25 10 01 13 03 00 00 
   7.563192 2  001       Rx   d 2 01 FF 
   7.563196 2  636       Rx   d 8 2B 25 10 01 13 03 00 00 
   7.563214 2  001       Rx   d 2 01 FF 
   7.564904 2  637       Rx   d 8 2B 25 10 01 13 03 00 00 
   7.564918 2  001       Rx   d 2 01 FF 
   7.564922 2  638       Rx   d 8 2B 25 10 01 13 03 00 00 
   7.564929 2  001       Rx   d 2 01 FF 
   7.564933 2  639       Rx   d 8 2B 25 10 01 13 03 00 00 
   7.564942 2  001       Rx   d 2 01 FF 
   7.564946 2  63A       Rx   d 8 2B 25 10 01 13 03 00 00 
   7.564953 2  001       Rx   d 2 01 FF 
   7.564957 2  63B       Rx   d 8 2B 25 10 01 13 03 00 00 
   7.564964 2  001       Rx   d 2 01 FF 
   7.566154 2  63C       Rx   d 8 2B 25 10 01 13 03 00 00 
   7.566171 2  001       Rx   d 2 01 FF 
   7.566185 2  63D       Rx   d 8 2B 25 10 01 13 03 00 00 
   7.566192 2  001       Rx   d 2 01 FF 
   7.566196 2  63E       Rx   d 8 2B 25 10 01 13 03 00 00 
   7.566203 2  001       Rx   d 2 01 FF 
   7.567148 2  63F       Rx   d 8 2B 25 10 01 13 03 00 00 
   7.567162 2  001       Rx   d 2 01 FF 
   7.567166 2  640       Rx   d 8 2B 25 10 01 13 03 00 00 
   7.567173 2  001       Rx   d 2 01 FF 
   7.568528 2  641       Rx   d 8 2B 25 10 01 13 03 00 00 
   7.568544 2  001       Rx   d 2 01 FF 
   7.568549 2  642       Rx   d 8 2B 25 10 01 13 03 00 00 
   7.568559 2  001       Rx   d 2 01 FF 
   7.568564 2  643       Rx   d 8 2B 25 10 01 13 03 00 00 
   7.568574 2  001       Rx   d 2 01 FF 
   7.569134 2  644       Rx   d 8 2B 25 10 01 13 03 00 00 
   7.569147 2  001       Rx   d 2 01 FF 
   7.569151 2  645       Rx   d 8 2B 25 10 01 13 03 00 00 
   7.569158 2  001       Rx   d 2 01 FF 
   7.569162 2  646       Rx   d 8 2B 25 10 01 13 03 00 00 
   7.570129 2  001       Rx   d 2 01 FF 
   7.570140 2  647       Rx   d 8 2B 25 10 01 13 03 00 00 
   7.570176 2  001       Rx   d 2 01 FF 
   7.570180 2  648       Rx   d 8 2B 25 10 01 13 03 00 00 
   7.570187 2  001       Rx   d 2 01 FF 
   7.571102 2  649       Rx   d 8 2B 25 10 01 13 03 00 00 
   7.571133 2  001       Rx   d 2 01 FF 
   7.571139 2  64A       Rx   d 8 2B 25 10 01 13 03 00 00 
   7.571148 2  001       Rx   d 2 01 FF 
   7.571151 2  64B       Rx   d 8 2B 25 10 01 13 03 00 00 
   7.572115 2  001       Rx   d 2 01 FF 
   7.572125 2  64C       Rx   d 8 2B 25 10 01 13 03 00 00 
   7.572132 2  001       Rx   d 2 01 FF 
   7.572136 2  64D       Rx   d 8 2B 25 10 01 13 03 00 00 
   7.572143 2  001       Rx   d 2 01 FF 
   7.573108 2  64E       Rx   d 8 2B 25 10 01 13 03 00 00 
   7.573122 2  001       Rx   d 2 01 FF 
   7.573126 2  64F       Rx   d 8 2B 25 10 01 13 03 00 00 
   7.573133 2  001       Rx   d 2 01 FF 
   7.573137 2  650       Rx   d 8 2B 25 10 01 13 03 00 00 
   7.574102 2  001       Rx   d 2 01 FF 
   7.574112 2  651       Rx   d 8 2B 25 10 01 13 03 00 00 
   7.574123 2  001       Rx   d 2 01 FF 
   7.574127 2  652       Rx   d 8 2B 25 10 01 13 03 00 00 
   7.574134 2  001       Rx   d 2 01 FF 
   7.575094 2  653       Rx   d 8 2B 25 10 01 13 03 00 00 
   7.575126 2  001       Rx   d 2 01 FF 
   7.575131 2  654       Rx   d 8 2B 25 10 01 13 03 00 00 
   7.575137 2  001       Rx   d 2 01 FF 
   7.575141 2  655       Rx   d 8 2B 25 10 01 13 03 00 00 
   7.576104 2  001       Rx   d 2 01 FF 
   7.576114 2  656       Rx   d 8 2B 25 10 01 13 03 00 00 
   7.576122 2  001       Rx   d 2 01 FF 
   7.576126 2  657       Rx   d 8 2B 25 10 01 13 03 00 00 
   7.576133 2  001       Rx   d 2 01 FF 
   7.577082 2  658       Rx   d 8 2B 25 10 01 13 03 00 00 
   7.577094 2  001       Rx   d 2 01 FF 
   7.577098 2  659       Rx   d 8 2B 25 10 01 13 03 00 00 
   7.577106 2  001       Rx   d 2 01 FF 
   7.577109 2  65A       Rx   d 8 2B 25 10 01 13 03 00 00 
   7.577118 2  001       Rx   d 2 01 FF 
   7.578098 2  65B       Rx   d 8 2B 25 10 01 13 03 00 00 
   7.578124 2  001       Rx   d 2 01 FF 
   7.578128 2  65C       Rx   d 8 2B 25 10 01 13 03 00 00 
   7.578137 2  001       Rx   d 2 01 FF 
   7.578141 2  65D       Rx   d 8 2B 25 10 01 13 03 00 00 
   7.579087 2  001       Rx   d 2 01 FF 
   7.579099 2  65E       Rx   d 8 2B 25 10 01 13 03 00 00 
   7.579124 2  001       Rx   d 2 01 FF 
   7.579128 2  65F       Rx   d 8 2B 25 10 01 13 03 00 00 
   7.579136 2  001       Rx   d 2 01 FF 
   7.580061 2  660       Rx   d 8 2B 25 10 01 13 03 00 00 
   7.580073 2  001       Rx   d 2 01 FF 
   7.580076 2  661       Rx   d 8 2B 25 10 01 13 03 00 00 
   7.580084 2  001       Rx   d 2 01 FF 
   7.580087 2  662       Rx   d 8 2B 25 10 01 13 03 00 00 
   7.581551 2  001       Rx   d 2 01 FF 
   7.581564 2  663       Rx   d 8 2B 25 10 01 13 03 00 00 
   7.581572 2  001       Rx   d 2 01 FF 
   7.581575 2  664       Rx   d 8 2B 25 10 01 13 03 00 00 
   7.581583 2  001       Rx   d 2 01 FF 
   7.582543 2  665       Rx   d 8 2B 25 10 01 13 03 00 00 
   7.582570 2  001       Rx   d 2 01 FF 
   7.582573 2  666       Rx   d 8 2B 25 10 01 13 03 00 00 
   7.582579 2  001       Rx   d 2 01 FF 
   7.582581 2  667       Rx   d 8 2B 25 10 01 13 03 00 00 
   7.583098 2  001       Rx   d 2 01 FF 
   7.583105 2  668       Rx   d 8 2B 25 10 01 13 03 00 00 
   7.583112 2  001       Rx   d 2 01 FF 
   7.583116 2  669       Rx   d 8 2B 25 10 01 13 03 00 00 
   7.583124 2  001       Rx   d 2 01 FF 
   7.584549 2  66A       Rx   d 8 2B 25 10 01 13 03 00 00 
   7.584564 2  001       Rx   d 2 01 FF 
   7.584568 2  66B       Rx   d 8 2B 25 10 01 13 03 00 00 
   7.584575 2  001       Rx   d 2 01 FF 
   7.584578 2  66C       Rx   d 8 2B 25 10 01 13 03 00 00 
   7.585525 2  001       Rx   d 2 01 FF 
   7.585533 2  66D       Rx   d 8 2B 25 10 01 13 03 00 00 
   7.585541 2  001       Rx   d 2 01 FF 
   7.585544 2  66E       Rx   d 8 2B 25 10 01 13 03 00 00 
   7.585552 2  001       Rx   d 2 01 FF 
   7.586520 2  66F       Rx   d 8 2B 25 10 01 13 03 00 00 
   7.586533 2  001       Rx   d 2 01 FF 
   7.586536 2  670       Rx   d 8 2B 25 10 01 13 03 00 00 
   7.586543 2  001       Rx   d 2 01 FF 
   7.586547 2  671       Rx   d 8 2B 25 10 01 13 03 00 00 
   7.586555 2  001       Rx   d 2 01 FF 
   7.587512 2  672       Rx   d 8 2B 25 10 01 13 03 00 00 
   7.587524 2  001       Rx   d 2 01 FF 
   7.587528 2  673       Rx   d 8 2B 25 10 01 13 03 00 00 
   7.587535 2  001       Rx   d 2 01 FF 
   7.587538 2  674       Rx   d 8 2B 25 10 01 13 03 00 00 
   7.588505 2  001       Rx   d 2 01 FF 
   7.588514 2  675       Rx   d 8 2B 25 10 01 13 03 00 00 
   7.588522 2  001       Rx   d 2 01 FF 
   7.588526 2  676       Rx   d 8 2B 25 10 01 13 03 00 00 
   7.588533 2  001       Rx   d 2 01 FF 
   7.589501 2  677       Rx   d 8 2B 25 10 01 13 03 00 00 
   7.589518 2  001       Rx   d 2 01 FF 
   7.589524 2  678       Rx   d 8 2B 25 10 01 13 03 00 00 
   7.589533 2  001       Rx   d 2 01 FF 
   7.589538 2  679       Rx   d 8 2B 25 10 01 13 03 00 00 
   7.590493 2  001       Rx   d 2 01 FF 
   7.590502 2  67A       Rx   d 8 2B 25 10 01 13 03 00 00 
   7.590510 2  001       Rx   d 2 01 FF 
   7.590514 2  67B       Rx   d 8 2B 25 10 01 13 03 00 00 
   7.590521 2  001       Rx   d 2 01 FF 
   7.591484 2  67C       Rx   d 8 2B 25 10 01 13 03 00 00 
   7.591496 2  001       Rx   d 2 01 FF 
   7.591500 2  67D       Rx   d 8 2B 25 10 01 13 03 00 00 
   7.591508 2  001       Rx   d 2 01 FF 
   7.591511 2  67E       Rx   d 8 2B 25 10 01 13 03 00 00 
   7.592491 2  001       Rx   d 2 01 FF 
   7.592501 2  67F       Rx   d 8 2B 25 10 01 13 03 00 00 
   7.592508 2  001       Rx   d 2 01 FF 
   7.592512 2  680       Rx   d 8 2B 25 10 01 13 03 00 00 
   7.592520 2  001       Rx   d 2 01 FF 
   7.593475 2  681       Rx   d 8 2B 25 10 01 13 03 00 00 
   7.593489 2  001       Rx   d 2 01 FF 
   7.593493 2  682       Rx   d 8 2B 25 10 01 13 03 00 00 
   7.593524 2  001       Rx   d 2 01 FF 
   7.593528 2  683       Rx   d 8 2B 25 10 01 13 03 00 00 
   7.594469 2  001       Rx   d 2 01 FF 
   7.594479 2  684       Rx   d 8 2B 25 10 01 13 03 00 00 
   7.594487 2  001       Rx   d 2 01 FF 
   7.594490 2  685       Rx   d 8 2B 25 10 01 13 03 00 00 
   7.594498 2  001       Rx   d 2 01 FF 
   7.595459 2  686       Rx   d 8 2B 25 10 01 13 03 00 00 
   7.595473 2  001       Rx   d 2 01 FF 
   7.595477 2  687       Rx   d 8 2B 25 10 01 13 03 00 00 
   7.595484 2  001       Rx   d 2 01 FF 
   7.595488 2  688       Rx   d 8 2B 25 10 01 13 03 00 00 
   7.595495 2  001       Rx   d 2 01 FF 
   7.596451 2  689       Rx   d 8 2B 25 10 01 13 03 00 00 
   7.596465 2  001       Rx   d 2 01 FF 
   7.596469 2  68A       Rx   d 8 2B 25 10 01 13 03 00 00 
   7.596476 2  001       Rx   d 2 01 FF 
   7.597444 2  68B       Rx   d 8 2B 25 10 01 13 03 00 00 
   7.597457 2  001       Rx   d 2 01 FF 
   7.597461 2  68C       Rx   d 8 2B 25 10 01 13 03 00 00 
   7.597468 2  001       Rx   d 2 01 FF 
   7.597471 2  68D       Rx   d 8 2B 25 10 01 13 03 00 00 
   7.597478 2  001       Rx   d 2 01 FF 
   7.598438 2  68E       Rx   d 8 2B 25 10 01 13 03 00 00 
   7.598451 2  001       Rx   d 2 01 FF 
   7.598455 2  68F       Rx   d 8 2B 25 10 01 13 03 00 00 
   7.598463 2  001       Rx   d 2 01 FF 
   7.598467 2  690       Rx   d 8 2B 25 10 01 13 03 00 00 
   7.599431 2  001       Rx   d 2 01 FF 
   7.599438 2  691       Rx   d 8 2B 25 10 01 13 03 00 00 
   7.599446 2  001       Rx   d 2 01 FF 
   7.599450 2  692       Rx   d 8 2B 25 10 01 13 03 00 00 
   7.599457 2  001       Rx   d 2 01 FF 
   7.600423 2  693       Rx   d 8 2B 25 10 01 13 03 00 00 
   7.600435 2  001       Rx   d 2 01 FF 
   7.600438 2  694       Rx   d 8 2B 25 10 01 13 03 00 00 
   7.600446 2  001       Rx   d 2 01 FF 
   7.600449 2  695       Rx   d 8 2B 25 10 01 13 03 00 00 
   7.601418 2  001       Rx   d 2 01 FF 
   7.601426 2  696       Rx   d 8 2B 25 10 01 13 03 00 00 
   7.601433 2  001       Rx   d 2 01 FF 
   7.601437 2  697       Rx   d 8 2B 25 10 01 13 03 00 00 
   7.601444 2  001       Rx   d 2 01 FF 
   7.602411 2  698       Rx   d 8 2B 25 10 01 13 03 00 00 
   7.602425 2  001       Rx   d 2 01 FF 
   7.602429 2  699       Rx   d 8 2B 25 10 01 13 03 00 00 
   7.602437 2  001       Rx   d 2 01 FF 
   7.602440 2  69A       Rx   d 8 2B 25 10 01 13 03 00 00 
   7.603405 2  001       Rx   d 2 01 FF 
   7.603414 2  69B       Rx   d 8 2B 25 10 01 13 03 00 00 
   7.603422 2  001       Rx   d 2 01 FF 
   7.603426 2  69C       Rx   d 8 2B 25 10 01 13 03 00 00 
   7.603433 2  001       Rx   d 2 01 FF 
   7.603437 2  001       Rx   d 2 01 FF 
   7.604396 2  001       Rx   d 2 01 FF 
   7.604405 2  001       Rx   d 2 01 FF 
   7.604409 2  001       Rx   d 2 01 FF 
   7.604412 2  001       Rx   d 2 01 FF 
   7.604416 2  001       Rx   d 2 01 FF 
   7.604419 2  001       Rx   d 2 01 FF 
   7.605408 2  001       Rx   d 2 01 FF 
   7.605417 2  001       Rx   d 2 01 FF 
   7.605420 2  001       Rx   d 2 01 FF 
   7.607227 2  001       Rx   d 2 01 FF 
   7.611357 2  001       Rx   d 2 01 FF 
   7.616814 2  001       Rx   d 2 01 FF 
   7.622278 2  001       Rx   d 2 01 FF 
   7.628237 2  001       Rx   d 2 01 FF 
   7.633205 2  001       Rx   d 2 01 FF 
   7.638672 2  001       Rx   d 2 01 FF 
   7.644133 2  001       Rx   d 2 01 FF 
   7.649595 2  001       Rx   d 2 01 FF 
   7.655058 2  001       Rx   d 2 01 FF 
   7.660978 2  001       Rx   d 2 01 FF 
   7.666000 2  001       Rx   d 2 01 FF 
   7.671448 2  001       Rx   d 2 01 FF 
   7.677605 2  001       Rx   d 2 01 FF 
   7.683389 2  001       Rx   d 2 01 FF 
   7.689328 2  001       Rx   d 2 01 FF 
   7.694296 2  001       Rx   d 2 01 FF 
   7.700007 2  001       Rx   d 2 01 FF 
   7.705223 2  001       Rx   d 2 01 FF 
   7.710686 2  001       Rx   d 2 01 FF 
   7.716150 2  001       Rx   d 2 01 FF 
   7.721613 2  001       Rx   d 2 01 FF 
   7.727076 2  001       Rx   d 2 01 FF 
   7.732539 2  001       Rx   d 2 01 FF 
   7.738499 2  001       Rx   d 2 01 FF 
   7.744437 2  001       Rx   d 2 01 FF 
   7.749426 2  001       Rx   d 2 01 FF 
   7.754394 2  001       Rx   d 2 01 FF 
   7.759857 2  001       Rx   d 2 01 FF 
   7.765319 2  001       Rx   d 2 01 FF 
   7.770783 2  001       Rx   d 2 01 FF 
   7.777095 2  001       Rx   d 2 01 FF 
   7.781710 2  001       Rx   d 2 01 FF 
   7.787191 2  001       Rx   d 2 01 FF 
   7.792635 2  001       Rx   d 2 01 FF 
   7.798596 2  001       Rx   d 2 01 FF 
   7.804058 2  001       Rx   d 2 01 FF 
   7.809522 2  001       Rx   d 2 01 FF 
   7.814984 2  001       Rx   d 2 01 FF 
   7.819954 2  001       Rx   d 2 01 FF 
   7.825418 2  001       Rx   d 2 01 FF 
   7.831343 2  001       Rx   d 2 01 FF 
   7.836342 2  001       Rx   d 2 01 FF 
   7.841804 2  001       Rx   d 2 01 FF 
   7.847271 2  001       Rx   d 2 01 FF 
   7.852745 2  001       Rx   d 2 01 FF 
   7.858694 2  001       Rx   d 2 01 FF 
   7.864156 2  001       Rx   d 2 01 FF 
   7.869122 2  001       Rx   d 2 01 FF 
   7.874585 2  001       Rx   d 2 01 FF 
   7.880052 2  001       Rx   d 2 01 FF 
   7.885513 2  001       Rx   d 2 01 FF 
   7.890976 2  001       Rx   d 2 01 FF 
   7.896438 2  001       Rx   d 2 01 FF 
   7.901903 2  001       Rx   d 2 01 FF 
   7.907365 2  001       Rx   d 2 01 FF 
   7.912830 2  001       Rx   d 2 01 FF 
   7.918291 2  001       Rx   d 2 01 FF 
   7.923756 2  001       Rx   d 2 01 FF 
   7.929715 2  001       Rx   d 2 01 FF 
   7.935190 2  001       Rx   d 2 01 FF 
   7.941134 2  001       Rx   d 2 01 FF 
   7.946601 2  001       Rx   d 2 01 FF 
   7.951569 2  001       Rx   d 2 01 FF 
   7.957033 2  001       Rx   d 2 01 FF 
   7.963006 2  001       Rx   d 2 01 FF 
   7.967958 2  001       Rx   d 2 01 FF 
   7.973441 2  001       Rx   d 2 01 FF 
   7.978896 2  001       Rx   d 2 01 FF 
   7.984351 2  001       Rx   d 2 01 FF 
   7.990517 2  001       Rx   d 2 01 FF 
   7.995276 2  001       Rx   d 2 01 FF 
   8.000739 2  001       Rx   d 2 01 FF 
   8.006204 2  001       Rx   d 2 01 FF 
   8.012091 2  001       Rx   d 2 01 FF 
   8.017128 2  001       Rx   d 2 01 FF 
   8.022592 2  001       Rx   d 2 01 FF 
   8.028063 2  001       Rx   d 2 01 FF 
   8.034034 2  001       Rx   d 2 01 FF 
   8.039479 2  001       Rx   d 2 01 FF 
   8.044942 2  001       Rx   d 2 01 FF 
   8.050405 2  001       Rx   d 2 01 FF 
   8.055870 2  001       Rx   d 2 01 FF 
   8.061333 2  001       Rx   d 2 01 FF 
   8.066797 2  001       Rx   d 2 01 FF 
   8.071763 2  001       Rx   d 2 01 FF 
   8.077226 2  001       Rx   d 2 01 FF 
   8.083491 2  001       Rx   d 2 01 FF 
   8.088644 2  001       Rx   d 2 01 FF 
   8.093615 2  001       Rx   d 2 01 FF 
   8.099081 2  001       Rx   d 2 01 FF 
   8.104550 2  001       Rx   d 2 01 FF 
   8.110004 2  001       Rx   d 2 01 FF 
   8.115993 2  001       Rx   d 2 01 FF 
   8.121428 2  001       Rx   d 2 01 FF 
   8.126892 2  001       Rx   d 2 01 FF 
   8.132562 2  001       Rx   d 2 01 FF 
   8.138316 2  001       Rx   d 2 01 FF 
   8.143283 2  001       Rx   d 2 01 FF 
   8.149268 2  001       Rx   d 2 01 FF 
   8.154723 2  001       Rx   d 2 01 FF 
   8.160176 2  001       Rx   d 2 01 FF 
   8.165322 2  001       Rx   d 2 01 FF 
   8.170601 2  001       Rx   d 2 01 FF 
   8.176061 2  001       Rx   d 2 01 FF 
   8.181525 2  001       Rx   d 2 01 FF 
   8.187503 2  001       Rx   d 2 01 FF 
   8.192454 2  001       Rx   d 2 01 FF 
   8.197916 2  001       Rx   d 2 01 FF 
   8.203381 2  001       Rx   d 2 01 FF 
   8.208884 2  001       Rx   d 2 01 FF 
   8.214304 2  001       Rx   d 2 01 FF 
   8.219768 2  001       Rx   d 2 01 FF 
   8.226011 2  001       Rx   d 2 01 FF 
   8.231050 2  001       Rx   d 2 01 FF 
   8.236657 2  001       Rx   d 2 01 FF 
   8.242135 2  001       Rx   d 2 01 FF 
   8.247607 2  001       Rx   d 2 01 FF 
   8.252549 2  001       Rx   d 2 01 FF 
   8.258013 2  001       Rx   d 2 01 FF 
   8.263972 2  001       Rx   d 2 01 FF 
   8.268939 2  001       Rx   d 2 01 FF 
   8.274417 2  001       Rx   d 2 01 FF 
   8.279867 2  001       Rx   d 2 01 FF 
   8.285328 2  001       Rx   d 2 01 FF 
   8.290791 2  001       Rx   d 2 01 FF 
   8.296258 2  001       Rx   d 2 01 FF 
   8.302232 2  001       Rx   d 2 01 FF 
   8.307214 2  001       Rx   d 2 01 FF 
   8.313178 2  001       Rx   d 2 01 FF 
   8.318623 2  001       Rx   d 2 01 FF 
   8.323824 2  001       Rx   d 2 01 FF 
   8.329052 2  001       Rx   d 2 01 FF 
   8.334499 2  001       Rx   d 2 01 FF 
   8.339964 2  001       Rx   d 2 01 FF 
   8.345427 2  001       Rx   d 2 01 FF 
   8.350892 2  001       Rx   d 2 01 FF 
   8.356872 2  001       Rx   d 2 01 FF 
   8.362310 2  001       Rx   d 2 01 FF 
   8.367328 2  001       Rx   d 2 01 FF 
   8.373266 2  001       Rx   d 2 01 FF 
   8.378862 2  001       Rx   d 2 01 FF 
   8.383668 2  001       Rx   d 2 01 FF 
   8.389131 2  001       Rx   d 2 01 FF 
   8.394594 2  001       Rx   d 2 01 FF 
   8.400057 2  001       Rx   d 2 01 FF 
   8.405558 2  001       Rx   d 2 01 FF 
   8.410984 2  001       Rx   d 2 01 FF 
   8.416448 2  001       Rx   d 2 01 FF 
   8.421916 2  001       Rx   d 2 01 FF 
   8.427373 2  001       Rx   d 2 01 FF 
   8.432871 2  001       Rx   d 2 01 FF 
   8.438326 2  001       Rx   d 2 01 FF 
   8.443765 2  001       Rx   d 2 01 FF 
   8.449694 2  001       Rx   d 2 01 FF 
   8.455294 2  001       Rx   d 2 01 FF 
   8.460156 2  001       Rx   d 2 01 FF 
   8.465617 2  001       Rx   d 2 01 FF 
   8.471080 2  001       Rx   d 2 01 FF 
   8.476542 2  001       Rx   d 2 01 FF 
   8.482529 2  001       Rx   d 2 01 FF 
   8.487469 2  001       Rx   d 2 01 FF 
   8.493456 2  001       Rx   d 2 01 FF 
   8.499412 2  001       Rx   d 2 01 FF 
   8.504855 2  001       Rx   d 2 01 FF 
   8.510699 2  001       Rx   d 2 01 FF 
   8.515781 2  001       Rx   d 2 01 FF 
   8.521246 2  001       Rx   d 2 01 FF 
   8.526708 2  001       Rx   d 2 01 FF 
   8.532172 2  001       Rx   d 2 01 FF 
   8.537636 2  001       Rx   d 2 01 FF 
   8.543611 2  001       Rx   d 2 01 FF 
   8.549079 2  001       Rx   d 2 01 FF 
   8.554025 2  001       Rx   d 2 01 FF 
   8.560008 2  001       Rx   d 2 01 FF 
   8.565137 2  001       Rx   d 2 01 FF 
   8.570415 2  001       Rx   d 2 01 FF 
   8.576518 2  001       Rx   d 2 01 FF 
   8.581341 2  001       Rx   d 2 01 FF 
   8.587323 2  001       Rx   d 2 01 FF 
   8.592987 2  001       Rx   d 2 01 FF 
   8.597733 2  001       Rx   d 2 01 FF 
   8.603234 2  001       Rx   d 2 01 FF 
   8.609177 2  001       Rx   d 2 01 FF 
   8.614644 2  001       Rx   d 2 01 FF 
   8.620079 2  001       Rx   d 2 01 FF 
   8.625546 2  001       Rx   d 2 01 FF 
   8.630510 2  001       Rx   d 2 01 FF 
   8.635986 2  001       Rx   d 2 01 FF 
   8.641436 2  001       Rx   d 2 01 FF 
   8.646904 2  001       Rx   d 2 01 FF 
   8.652859 2  001       Rx   d 2 01 FF 
   8.659316 2  001       Rx   d 2 01 FF 
   8.663854 2  001       Rx   d 2 01 FF 
   8.669274 2  001       Rx   d 2 01 FF 
   8.674737 2  001       Rx   d 2 01 FF 
   8.680176 2  001       Rx   d 2 01 FF 
   8.685642 2  001       Rx   d 2 01 FF 
   8.691017 2  001       Rx   d 2 01 FF 
   8.696415 2  001       Rx   d 2 01 FF 
   8.701682 2  001       Rx   d 2 01 FF 
   8.707642 2  001       Rx   d 2 01 FF 
   8.712460 2  001       Rx   d 2 01 FF 
   8.717925 2  001       Rx   d 2 01 FF 
   8.723392 2  001       Rx   d 2 01 FF 
   8.729350 2  001       Rx   d 2 01 FF 
   8.734833 2  001       Rx   d 2 01 FF 
   8.740295 2  001       Rx   d 2 01 FF 
   8.745739 2  001       Rx   d 2 01 FF 
   8.751144 2  001       Rx   d 2 01 FF 
   8.756168 2  001       Rx   d 2 01 FF 
   8.761629 2  001       Rx   d 2 01 FF 
   8.767094 2  001       Rx   d 2 01 FF 
   8.772555 2  001       Rx   d 2 01 FF 
   8.778361 2  001       Rx   d 2 01 FF 
   8.783482 2  001       Rx   d 2 01 FF 
   8.788945 2  001       Rx   d 2 01 FF 
   8.794909 2  001       Rx   d 2 01 FF 
   8.800390 2  001       Rx   d 2 01 FF 
   8.805834 2  001       Rx   d 2 01 FF 
   8.811299 2  001       Rx   d 2 01 FF 
   8.816263 2  001       Rx   d 2 01 FF 
   8.821936 2  001       Rx   d 2 01 FF 
   8.827190 2  001       Rx   d 2 01 FF 
   8.833089 2  001       Rx   d 2 01 FF 
   8.838116 2  001       Rx   d 2 01 FF 
   8.843582 2  001       Rx   d 2 01 FF 
   8.849048 2  001       Rx   d 2 01 FF 
   8.854506 2  001       Rx   d 2 01 FF 
   8.860000 2  001       Rx   d 2 01 FF 
   8.865948 2  001       Rx   d 2 01 FF 
   8.871392 2  001       Rx   d 2 01 FF 
   8.876554 2  001       Rx   d 2 01 FF 
   8.881824 2  001       Rx   d 2 01 FF 
   8.888062 2  001       Rx   d 2 01 FF 
   8.893418 2  001       Rx   d 2 01 FF 
   8.898214 2  001       Rx   d 2 01 FF 
   8.903677 2  001       Rx   d 2 01 FF 
   8.909660 2  001       Rx   d 2 01 FF 
   8.914607 2  001       Rx   d 2 01 FF 
   8.920584 2  001       Rx   d 2 01 FF 
   8.926051 2  001       Rx   d 2 01 FF 
   8.930996 2  001       Rx   d 2 01 FF 
   8.936458 2  001       Rx   d 2 01 FF 
   8.941919 2  001       Rx   d 2 01 FF 
   8.947388 2  001       Rx   d 2 01 FF 
   8.952846 2  001       Rx   d 2 01 FF 
   8.958412 2  001       Rx   d 2 01 FF 
   8.963775 2  001       Rx   d 2 01 FF 
   8.969237 2  001       Rx   d 2 01 FF 
   8.974701 2  001       Rx   d 2 01 FF 
   8.980166 2  001       Rx   d 2 01 FF 
   8.986148 2  001       Rx   d 2 01 FF 
   8.991588 2  001       Rx   d 2 01 FF 
   8.997074 2  001       Rx   d 2 01 FF 
   9.002018 2  001       Rx   d 2 01 FF 
   9.007479 2  001       Rx   d 2 01 FF 
   9.012959 2  001       Rx   d 2 01 FF 
   9.018929 2  001       Rx   d 2 01 FF 
   9.023869 2  001       Rx   d 2 01 FF 
   9.029333 2  001       Rx   d 2 01 FF 
   9.034796 2  001       Rx   d 2 01 FF 
   9.040779 2  001       Rx   d 2 01 FF 
   9.046242 2  001       Rx   d 2 01 FF 
   9.051702 2  001       Rx   d 2 01 FF 
   9.057147 2  001       Rx   d 2 01 FF 
   9.063147 2  001       Rx   d 2 01 FF 
   9.067580 2  001       Rx   d 2 01 FF 
   9.073701 2  001       Rx   d 2 01 FF 
   9.079188 2  001       Rx   d 2 01 FF 
   9.083966 2  001       Rx   d 2 01 FF 
   9.089430 2  001       Rx   d 2 01 FF 
   9.094891 2  001       Rx   d 2 01 FF 
   9.100950 2  001       Rx   d 2 01 FF 
   9.106339 2  001       Rx   d 2 01 FF 
   9.111806 2  001       Rx   d 2 01 FF 
   9.116748 2  001       Rx   d 2 01 FF 
   9.122707 2  001       Rx   d 2 01 FF 
   9.128402 2  001       Rx   d 2 01 FF 
   9.133137 2  001       Rx   d 2 01 FF 
   9.138604 2  001       Rx   d 2 01 FF 
   9.144601 2  001       Rx   d 2 01 FF 
   9.149528 2  001       Rx   d 2 01 FF 
   9.154990 2  001       Rx   d 2 01 FF 
   9.160974 2  001       Rx   d 2 01 FF 
   9.166442 2  001       Rx   d 2 01 FF 
   9.171380 2  001       Rx   d 2 01 FF 
   9.176862 2  001       Rx   d 2 01 FF 
   9.182312 2  001       Rx   d 2 01 FF 
   9.188266 2  001       Rx   d 2 01 FF 
   9.193749 2  001       Rx   d 2 01 FF 
   9.198661 2  001       Rx   d 2 01 FF 
   9.204164 2  001       Rx   d 2 01 FF 
   9.209628 2  001       Rx   d 2 01 FF 
   9.215105 2  001       Rx   d 2 01 FF 
   9.221046 2  001       Rx   d 2 01 FF 
   9.226015 2  001       Rx   d 2 01 FF 
   9.232077 2  001       Rx   d 2 01 FF 
   9.236943 2  001       Rx   d 2 01 FF 
   9.242402 2  001       Rx   d 2 01 FF 
   9.247867 2  001       Rx   d 2 01 FF 
   9.253600 2  001       Rx   d 2 01 FF 
   9.258797 2  001       Rx   d 2 01 FF 
   9.264258 2  001       Rx   d 2 01 FF 
   9.269720 2  001       Rx   d 2 01 FF 
   9.275532 2  001       Rx   d 2 01 FF 
   9.281527 2  001       Rx   d 2 01 FF 
   9.286625 2  001       Rx   d 2 01 FF 
   9.291575 2  001       Rx   d 2 01 FF 
   9.297054 2  001       Rx   d 2 01 FF 
   9.302516 2  001       Rx   d 2 01 FF 
   9.308478 2  001       Rx   d 2 01 FF 
   9.313926 2  001       Rx   d 2 01 FF 
   9.319228 2  001       Rx   d 2 01 FF 
   9.325042 2  001       Rx   d 2 01 FF 
   9.330332 2  001       Rx   d 2 01 FF 
   9.336167 2  001       Rx   d 2 01 FF 
   9.340764 2  001       Rx   d 2 01 FF 
   9.346209 2  001       Rx   d 2 01 FF 
   9.352170 2  001       Rx   d 2 01 FF 
   9.357135 2  001       Rx   d 2 01 FF 
   9.362599 2  001       Rx   d 2 01 FF 
   9.368062 2  001       Rx   d 2 01 FF 
   9.373526 2  001       Rx   d 2 01 FF 
   9.380305 2  001       Rx   d 2 01 FF 
   9.384451 2  001       Rx   d 2 01 FF 
   9.389931 2  001       Rx   d 2 01 FF 
   9.395378 2  001       Rx   d 2 01 FF 
   9.400841 2  001       Rx   d 2 01 FF 
   9.406304 2  001       Rx   d 2 01 FF 
   9.411769 2  001       Rx   d 2 01 FF 
   9.417230 2  001       Rx   d 2 01 FF 
   9.422702 2  001       Rx   d 2 01 FF 
   9.428162 2  001       Rx   d 2 01 FF 
   9.434120 2  001       Rx   d 2 01 FF 
   9.439586 2  001       Rx   d 2 01 FF 
   9.445048 2  001       Rx   d 2 01 FF 
   9.450023 2  001       Rx   d 2 01 FF 
   9.455590 2  001       Rx   d 2 01 FF 
   9.461134 2  001       Rx   d 2 01 FF 
   9.466439 2  001       Rx   d 2 01 FF 
   9.471883 2  001       Rx   d 2 01 FF 
   9.477328 2  001       Rx   d 2 01 FF 
   9.483156 2  001       Rx   d 2 01 FF 
   9.488752 2  001       Rx   d 2 01 FF 
   9.494215 2  001       Rx   d 2 01 FF 
   9.499210 2  001       Rx   d 2 01 FF 
   9.505141 2  001       Rx   d 2 01 FF 
   9.510109 2  001       Rx   d 2 01 FF 
   9.515574 2  001       Rx   d 2 01 FF 
   9.521035 2  001       Rx   d 2 01 FF 
   9.526498 2  001       Rx   d 2 01 FF 
   9.531962 2  001       Rx   d 2 01 FF 
   9.537594 2  001       Rx   d 2 01 FF 
   9.542891 2  001       Rx   d 2 01 FF 
   9.548352 2  001       Rx   d 2 01 FF 
   9.554308 2  001       Rx   d 2 01 FF 
   9.559795 2  001       Rx   d 2 01 FF 
   9.564739 2  001       Rx   d 2 01 FF 
   9.570205 2  001       Rx   d 2 01 FF 
   9.575670 2  001       Rx   d 2 01 FF 
   9.581130 2  001       Rx   d 2 01 FF 
   9.586595 2  001       Rx   d 2 01 FF 
   9.592058 2  001       Rx   d 2 01 FF 
   9.597521 2  001       Rx   d 2 01 FF 
   9.602984 2  001       Rx   d 2 01 FF 
   9.608445 2  001       Rx   d 2 01 FF 
   9.614428 2  001       Rx   d 2 01 FF 
   9.619372 2  001       Rx   d 2 01 FF 
   9.625333 2  001       Rx   d 2 01 FF 
   9.630907 2  001       Rx   d 2 01 FF 
   9.635808 2  001       Rx   d 2 01 FF 
   9.641228 2  001       Rx   d 2 01 FF 
   9.646690 2  001       Rx   d 2 01 FF 
   9.652153 2  001       Rx   d 2 01 FF 
   9.657616 2  001       Rx   d 2 01 FF 
   9.663081 2  001       Rx   d 2 01 FF 
   9.668662 2  001       Rx   d 2 01 FF 
   9.674501 2  001       Rx   d 2 01 FF 
   9.679965 2  001       Rx   d 2 01 FF 
   9.685430 2  001       Rx   d 2 01 FF 
   9.690395 2  001       Rx   d 2 01 FF 
   9.695860 2  001       Rx   d 2 01 FF 
   9.701586 2  001       Rx   d 2 01 FF 
   9.707223 2  001       Rx   d 2 01 FF 
   9.712682 2  001       Rx   d 2 01 FF 
   9.717713 2  001       Rx   d 2 01 FF 
   9.723308 2  001       Rx   d 2 01 FF 
   9.728639 2  001       Rx   d 2 01 FF 
   9.734600 2  001       Rx   d 2 01 FF 
   9.740064 2  001       Rx   d 2 01 FF 
   9.745528 2  001       Rx   d 2 01 FF 
   9.750533 2  001       Rx   d 2 01 FF 
   9.756190 2  001       Rx   d 2 01 FF 
   9.761419 2  001       Rx   d 2 01 FF 
   9.766886 2  001       Rx   d 2 01 FF 
   9.772347 2  001       Rx   d 2 01 FF 
   9.777811 2  001       Rx   d 2 01 FF 
   9.783286 2  001       Rx   d 2 01 FF 
   9.788737 2  001       Rx   d 2 01 FF 
   9.794215 2  001       Rx   d 2 01 FF 
   9.800160 2  001       Rx   d 2 01 FF 
   9.805134 2  001       Rx   d 2 01 FF 
   9.810590 2  001       Rx   d 2 01 FF 
   9.816067 2  001       Rx   d 2 01 FF 
   9.821518 2  001       Rx   d 2 01 FF 
   9.826980 2  001       Rx   d 2 01 FF 
   9.832445 2  001       Rx   d 2 01 FF 
   9.838648 2  001       Rx   d 2 01 FF 
   9.844126 2  001       Rx   d 2 01 FF 
   9.848841 2  001       Rx   d 2 01 FF 
   9.854295 2  001       Rx   d 2 01 FF 
   9.860255 2  001       Rx   d 2 01 FF 
   9.865233 2  001       Rx   d 2 01 FF 
   9.871026 2  001       Rx   d 2 01 FF 
   9.876148 2  001       Rx   d 2 01 FF 
   9.881614 2  001       Rx   d 2 01 FF 
   9.887077 2  001       Rx   d 2 01 FF 
   9.892540 2  001       Rx   d 2 01 FF 
   9.898002 2  001       Rx   d 2 01 FF 
   9.904176 2  001       Rx   d 2 01 FF 
   9.908949 2  001       Rx   d 2 01 FF 
   9.914395 2  001       Rx   d 2 01 FF 
   9.919871 2  001       Rx   d 2 01 FF 
   9.925820 2  001       Rx   d 2 01 FF 
   9.931278 2  001       Rx   d 2 01 FF 
   9.936745 2  001       Rx   d 2 01 FF 
   9.942722 2  001       Rx   d 2 01 FF 
   9.947672 2  001       Rx   d 2 01 FF 
   9.953150 2  001       Rx   d 2 01 FF 
   9.958598 2  001       Rx   d 2 01 FF 
   9.964068 2  001       Rx   d 2 01 FF 
   9.969523 2  001       Rx   d 2 01 FF 
   9.974987 2  001       Rx   d 2 01 FF 
   9.980471 2  001       Rx   d 2 01 FF 
   9.986411 2  001       Rx   d 2 01 FF 
   9.994206 2  001       Rx   d 2 01 FF 
   9.996847 2  001       Rx   d 2 01 FF 
   10.002315 2  001       Rx   d 2 01 FF 
   10.007768 2  001       Rx   d 2 01 FF 
   10.013229 2  001       Rx   d 2 01 FF 
   10.019189 2  001       Rx   d 2 01 FF 
   10.024168 2  001       Rx   d 2 01 FF 
   10.029621 2  001       Rx   d 2 01 FF 
   10.035584 2  001       Rx   d 2 01 FF 
   10.041558 2  001       Rx   d 2 01 FF 
   10.046509 2  001       Rx   d 2 01 FF 
   10.052470 2  001       Rx   d 2 01 FF 
   10.058640 2  001       Rx   d 2 01 FF 
   10.063396 2  001       Rx   d 2 01 FF 
   10.068863 2  001       Rx   d 2 01 FF 
   10.074920 2  001       Rx   d 2 01 FF 
   10.079286 2  001       Rx   d 2 01 FF 
   10.085744 2  001       Rx   d 2 01 FF 
   10.090708 2  001       Rx   d 2 01 FF 
   10.096174 2  001       Rx   d 2 01 FF 
   10.102134 2  001       Rx   d 2 01 FF 
   10.137415 2  001       Rx   d 2 14 00 
   10.168204 2  001       Rx   d 2 14 01 
   10.169182 2  002       Rx   d 6 14 01 01 17 7B CF 
   10.198738 2  001       Rx   d 2 14 05 
   10.229281 2  001       Rx   d 2 14 0A 
   10.259097 2  001       Rx   d 2 14 69 
   10.505924 2  001       Rx   d 7 11 FF 00 00 00 00 00 
   10.506918 2  001       Rx   d 7 11 01 01 17 7B CF 01 
   10.506935 2  002       Rx   d 6 11 01 01 17 7B CF 
   10.507907 2  001       Rx   d 7 17 01 4E 37 A5 BD 00 
   10.507923 2  002       Rx   d 8 17 01 53 A1 07 5C 03 02 
   10.508900 2  001       Rx   d 7 17 01 22 A9 23 7F 01 
   10.508913 2  002       Rx   d 8 17 01 75 90 34 02 03 02 
   10.546162 2  001       Rx   d 7 11 FF 00 00 00 00 00 
   10.566517 2  001       Rx   d 7 11 FF 00 00 00 00 00 
   10.567509 2  001       Rx   d 7 11 01 01 17 7B CF 01 
   10.567528 2  002       Rx   d 6 11 01 01 17 7B CF 
   10.568504 2  001       Rx   d 6 0D 01 08 00 30 00 
   10.568525 2  002       Rx   d 2 0D 01 
   10.569496 2  001       Rx   d 8 05 01 00 20 08 07 00 00 
   10.569516 2  001       Rx   d 8 05 01 00 01 00 00 00 01 
   10.570880 2  001       Rx   d 8 05 01 00 00 03 00 00 00 
   10.570896 2  001       Rx   d 8 05 01 00 00 00 00 00 01 
   10.570903 2  001       Rx   d 8 05 01 00 00 00 00 00 00 
   10.570909 2  001       Rx   d 8 05 01 00 02 00 00 01 F4 
   10.571480 2  001       Rx   d 8 05 01 00 00 00 00 00 00 
   10.571492 2  001       Rx   d 8 05 01 00 01 0A 64 1E C8 
   10.571500 2  001       Rx   d 8 05 01 FF FF 00 00 EF 00 
   10.571506 2  001       Rx   d 8 05 01 00 01 00 00 00 00 
   10.572475 2  001       Rx   d 8 05 01 00 00 00 00 00 00 
   10.572491 2  001       Rx   d 2 02 01 
   10.572497 2  002       Rx   d 6 02 01 00 42 00 00 
   10.573469 2  001       Rx   d 8 05 01 00 00 00 00 00 00 
   10.573482 2  001       Rx   d 8 05 01 00 00 00 00 00 00 
   10.573486 2  001       Rx   d 8 05 01 00 00 00 00 00 01 
   10.574464 2  001       Rx   d 8 05 01 00 01 00 00 0B 1F 
   10.574480 2  001       Rx   d 8 05 01 7A 3A EB 43 CD 41 
   10.574490 2  001       Rx   d 8 05 01 B7 00 78 D4 0B 0D 
   10.574501 2  001       Rx   d 8 05 01 7F 68 D2 E5 77 CE 
   10.575454 2  001       Rx   d 8 05 01 10 AD C1 98 BB 08 
   10.575465 2  001       Rx   d 8 05 01 8A 50 B4 76 DA A4 
   10.575472 2  001       Rx   d 8 05 01 9E 7A 51 54 F8 A2 
   10.575480 2  001       Rx   d 8 05 01 06 DB E2 80 20 0C 
   10.576457 2  001       Rx   d 2 02 01 
   10.576470 2  002       Rx   d 6 02 01 00 42 00 00 
   10.577441 2  001       Rx   d 8 05 01 E3 A0 10 04 E3 A0 
   10.577456 2  001       Rx   d 8 05 01 C0 01 E5 F2 00 18 
   10.577463 2  001       Rx   d 8 05 01 E2 50 00 01 03 8C 
   10.578435 2  001       Rx   d 8 05 01 C0 02 0A 00 00 07 
   10.578450 2  001       Rx   d 8 05 01 E2 50 00 01 0A 00 
   10.578457 2  001       Rx   d 8 05 01 00 03 E2 50 00 01 
   10.578466 2  001       Rx   d 8 05 01 1A 00 00 03 E3 8C 
   10.579427 2  001       Rx   d 8 05 01 C0 FE EA 00 00 01 
   10.579439 2  001       Rx   d 8 05 01 E3 8C C0 0E EA FF 
   10.579446 2  001       Rx   d 8 05 01 FF FF E2 51 10 01 
   10.579453 2  001       Rx   d 8 05 01 15 F2 00 18 1A FF 
   10.580464 2  001       Rx   d 2 02 01 
   10.580476 2  002       Rx   d 6 02 01 00 42 00 00 
   10.581423 2  001       Rx   d 8 05 01 FF F1 E1 8C C4 0C 
   10.581439 2  001       Rx   d 8 05 01 E1 A0 08 0C E1 2F 
   10.581447 2  001       Rx   d 8 05 01 FF 1E 00 00 00 00 
   10.582410 2  001       Rx   d 8 05 01 00 00 00 00 00 00 
   10.582423 2  001       Rx   d 8 05 01 00 00 E9 2D 40 08 
   10.582430 2  001       Rx   d 8 05 01 EB 00 13 F9 E5 90 
   10.582437 2  001       Rx   d 8 05 01 C0 B0 E1 2F FF 3C 
   10.583405 2  001       Rx   d 8 05 01 E8 BD 80 08 FF FF 
   10.583418 2  001       Rx   d 8 05 01 E5 00 FF FF FF 00 
   10.583426 2  001       Rx   d 8 05 01 09 FF FF FF 00 00 
   10.583432 2  001       Rx   d 8 05 01 00 03 09 31 00 20 
   10.584397 2  001       Rx   d 2 02 01 
   10.584409 2  002       Rx   d 6 02 01 00 42 00 00 
   10.585390 2  001       Rx   d 8 05 01 00 CE FF DC 00 0A 
   10.585407 2  001       Rx   d 8 05 01 00 00 FF FF FF F0 
   10.586426 2  001       Rx   d 8 05 01 E3 A0 20 00 E1 52 
   10.586441 2  001       Rx   d 8 05 01 00 00 0A 00 00 72 
   10.586448 2  001       Rx   d 8 05 01 E5 1F 20 2C E0 02 
   10.586456 2  001       Rx   d 8 05 01 20 00 E1 52 00 00 
   10.586481 2  001       Rx   d 8 05 01 1A 00 00 6E E5 1F 
   10.587376 2  001       Rx   d 8 05 01 20 40 E5 92 30 58 
   10.587390 2  001       Rx   d 8 05 01 E3 83 3C 01 E5 82 
   10.587399 2  001       Rx   d 8 05 01 30 58 E3 A0 30 01 
   10.587406 2  001       Rx   d 8 05 01 E5 82 30 60 E5 92 
   10.588369 2  001       Rx   d 2 02 01 
   10.588380 2  002       Rx   d 6 02 01 00 42 00 00 
   10.589362 2  001       Rx   d 8 05 01 30 58 E5 1F 20 44 
   10.589376 2  001       Rx   d 8 05 01 E0 03 30 02 E5 1F 
   10.589383 2  001       Rx   d 8 05 01 20 64 E5 82 30 58 
   10.590356 2  001       Rx   d 8 05 01 E5 92 30 58 E3 83 
   10.590372 2  001       Rx   d 8 05 01 30 0A E5 82 30 58 
   10.590381 2  001       Rx   d 8 05 01 E1 A0 00 00 E1 A0 
   10.590391 2  001       Rx   d 8 05 01 00 00 E1 A0 00 00 
   10.591902 2  001       Rx   d 8 05 01 E1 A0 00 00 E1 A0 
   10.591920 2  001       Rx   d 8 05 01 00 00 E1 A0 00 00 
   10.591930 2  001       Rx   d 8 05 01 E1 A0 00 00 E1 A0 
   10.591938 2  001       Rx   d 8 05 01 00 00 E1 A0 00 00 
   10.592844 2  001       Rx   d 2 02 01 
   10.592857 2  002       Rx   d 6 02 01 00 42 00 00 
   10.593918 2  001       Rx   d 8 05 01 E1 A0 00 00 E1 A0 
   10.593930 2  001       Rx   d 8 05 01 00 00 E1 A0 00 00 
   10.593937 2  001       Rx   d 8 05 01 E1 A0 00 00 E1 A0 
   10.594827 2  001       Rx   d 8 05 01 00 00 E1 A0 00 00 
   10.594842 2  001       Rx   d 8 05 01 E1 A0 00 00 E1 A0 
   10.594848 2  001       Rx   d 8 05 01 00 00 E1 A0 00 00 
   10.594853 2  001       Rx   d 8 05 01 E1 A0 00 00 E1 A0 
   10.595989 2  001       Rx   d 8 05 01 00 00 E1 A0 00 00 
   10.596001 2  001       Rx   d 8 05 01 E1 A0 00 00 E1 A0 
   10.596009 2  001       Rx   d 8 05 01 00 00 E1 A0 00 00 
   10.596017 2  001       Rx   d 8 05 01 E1 A0 00 00 E1 A0 
   10.596811 2  001       Rx   d 2 02 01 
   10.596823 2  002       Rx   d 6 02 01 00 42 00 00 
   10.597807 2  001       Rx   d 8 05 01 00 00 E1 A0 00 00 
   10.597821 2  001       Rx   d 8 05 01 E1 A0 00 00 E1 A0 
   10.597826 2  001       Rx   d 8 05 01 00 00 E1 A0 00 00 
   10.598798 2  001       Rx   d 8 05 01 E1 A0 00 00 E1 A0 
   10.598809 2  001       Rx   d 8 05 01 00 00 E5 1F 20 FC 
   10.598815 2  001       Rx   d 8 05 01 E3 A0 30 03 E5 82 
   10.598823 2  001       Rx   d 8 05 01 30 80 E5 1F 31 00 
   10.599793 2  001       Rx   d 8 05 01 E1 53 00 00 0A 00 
   10.599807 2  001       Rx   d 8 05 01 00 21 E3 51 00 01 
   10.599814 2  001       Rx   d 8 05 01 0A 00 00 17 E5 1F 
   10.599822 2  001       Rx   d 8 05 01 11 10 E1 11 00 00 
   10.600786 2  001       Rx   d 2 02 01 
   10.600800 2  002       Rx   d 6 02 01 00 42 00 00 
   10.601780 2  001       Rx   d 8 05 01 1A 00 00 0F E5 1F 
   10.601800 2  001       Rx   d 8 05 01 11 14 E1 11 00 00 
   10.601810 2  001       Rx   d 8 05 01 1A 00 00 07 E5 1F 
   10.602993 2  001       Rx   d 8 05 01 11 24 E1 11 00 00 
   10.603010 2  001       Rx   d 8 05 01 0A 00 00 12 E3 A0 
   10.603019 2  001       Rx   d 8 05 01 30 08 E5 82 30 C4 
   10.603029 2  001       Rx   d 8 05 01 E0 01 30 00 E5 82 
   10.604069 2  001       Rx   d 8 05 01 30 C8 EA 00 00 0D 
   10.604087 2  001       Rx   d 8 05 01 E3 A0 30 04 E5 82 
   10.604098 2  001       Rx   d 8 05 01 30 C4 E0 01 30 00 
   10.604107 2  001       Rx   d 8 05 01 E5 82 30 C8 EA 00 
   10.604760 2  001       Rx   d 2 02 01 
   10.604770 2  002       Rx   d 6 02 01 00 42 00 00 
   10.605752 2  001       Rx   d 8 05 01 00 08 E3 A0 30 02 
   10.605768 2  001       Rx   d 8 05 01 E5 82 30 C4 E0 01 
   10.605774 2  001       Rx   d 8 05 01 30 00 E5 82 30 C8 
   10.606745 2  001       Rx   d 8 05 01 EA 00 00 03 E3 A0 
   10.606758 2  001       Rx   d 8 05 01 30 04 E5 82 30 C4 
   10.606765 2  001       Rx   d 8 05 01 E3 A0 30 01 E5 82 
   10.606772 2  001       Rx   d 8 05 01 30 C8 E3 A0 30 00 
   10.607740 2  001       Rx   d 8 05 01 E5 82 30 CC E5 82 
   10.607758 2  001       Rx   d 8 05 01 30 88 EA 00 00 03 
   10.607769 2  001       Rx   d 8 05 01 E3 A0 30 0E E5 82 
   10.607779 2  001       Rx   d 8 05 01 30 C4 E3 A0 30 01 
   10.608735 2  001       Rx   d 2 02 01 
   10.608753 2  002       Rx   d 6 02 01 00 42 00 00 
   10.610441 2  001       Rx   d 8 05 01 E5 82 30 88 E3 A0 
   10.610458 2  001       Rx   d 8 05 01 30 03 E5 82 30 C0 
   10.610718 2  001       Rx   d 8 05 01 E3 A0 30 14 E5 82 
   10.610729 2  001       Rx   d 8 05 01 30 64 E5 1F 31 A4 
   10.610737 2  001       Rx   d 8 05 01 E5 1F 21 BC E5 92 
   10.610744 2  001       Rx   d 8 05 01 10 68 E3 11 00 01 
   10.610751 2  001       Rx   d 8 05 01 1A 00 00 02 E2 43 
   10.612499 2  001       Rx   d 8 05 01 30 01 E3 53 00 00 
   10.612515 2  001       Rx   d 8 05 01 1A FF FF F9 E5 1F 
   10.612523 2  001       Rx   d 8 05 01 21 DC E5 92 10 90 
   10.612554 2  001       Rx   d 8 05 01 E3 11 00 01 1A 00 
   10.612564 2  001       Rx   d 2 02 01 
   10.612569 2  002       Rx   d 6 02 01 00 42 00 00 
   10.613700 2  001       Rx   d 8 05 01 00 06 E5 92 30 94 
   10.613716 2  001       Rx   d 8 05 01 E3 13 00 01 1A 00 
   10.613723 2  001       Rx   d 8 05 01 00 03 E3 A0 00 00 
   10.614691 2  001       Rx   d 8 05 01 EA 00 00 02 E3 06 
   10.614703 2  001       Rx   d 8 05 01 00 11 EA 00 00 00 
   10.614710 2  001       Rx   d 8 05 01 E3 06 00 13 E3 A0 
   10.614718 2  001       Rx   d 8 05 01 30 00 E5 82 30 80 
   10.615685 2  001       Rx   d 8 05 01 E5 1F 22 10 E5 92 
   10.615698 2  001       Rx   d 8 05 01 30 58 E5 1F 12 00 
   10.615706 2  001       Rx   d 8 05 01 E0 03 30 01 E5 82 
   10.615714 2  001       Rx   d 8 05 01 30 58 E5 92 30 58 
   10.616679 2  001       Rx   d 2 02 01 
   10.616690 2  002       Rx   d 6 02 01 00 42 00 00 
   10.617671 2  001       Rx   d 8 05 01 E3 83 30 05 E5 82 
   10.617684 2  001       Rx   d 8 05 01 30 58 E5 92 30 58 
   10.617690 2  001       Rx   d 8 05 01 E5 1F 12 1C E0 03 
   10.618666 2  001       Rx   d 8 05 01 30 01 E5 82 30 58 
   10.618681 2  001       Rx   d 8 05 01 E5 92 30 58 E3 83 
   10.618689 2  001       Rx   d 8 05 01 30 0A E5 82 30 58 
   10.618696 2  001       Rx   d 8 05 01 E5 1F 22 4C E5 92 
   10.619657 2  001       Rx   d 8 05 01 30 58 E5 1F 12 3C 
   10.619679 2  001       Rx   d 8 05 01 E0 03 30 01 E5 82 
   10.619686 2  001       Rx   d 8 05 01 30 58 E5 92 30 58 
   10.619692 2  001       Rx   d 8 05 01 E3 83 30 05 E5 82 
   10.620652 2  001       Rx   d 2 02 01 
   10.620665 2  002       Rx   d 6 02 01 00 42 00 00 
   10.621664 2  001       Rx   d 8 05 01 30 58 E1 2F FF 1E 
   10.621679 2  001       Rx   d 8 05 01 E3 A0 10 00 EA FF 
   10.621686 2  001       Rx   d 8 05 01 FF 6A 00 00 00 00 
   10.623138 2  001       Rx   d 8 05 01 00 00 00 00 E9 2D 
   10.623154 2  001       Rx   d 8 05 01 40 08 EB 00 13 55 
   10.623161 2  001       Rx   d 8 05 01 E5 90 C0 B4 E1 2F 
   10.623169 2  001       Rx   d 8 05 01 FF 3C E8 BD 80 08 
   10.624127 2  001       Rx   d 8 05 01 00 00 00 00 00 00 
   10.624139 2  001       Rx   d 8 05 01 00 00 00 00 00 00 
   10.624144 2  001       Rx   d 8 05 01 E9 2D 40 08 E5 D1 
   10.624152 2  001       Rx   d 8 05 01 C0 00 E5 D1 E0 01 
   10.625208 2  001       Rx   d 2 02 01 
   10.625221 2  002       Rx   d 6 02 01 00 42 00 00 
   10.626117 2  001       Rx   d 8 05 01 E5 D1 30 02 E1 8E 
   10.626133 2  001       Rx   d 8 05 01 C1 0C E5 D1 E0 03 
   10.626141 2  001       Rx   d 8 05 01 E1 83 C0 8C E5 D1 
   10.627108 2  001       Rx   d 8 05 01 30 04 E1 8E C0 8C 
   10.627126 2  001       Rx   d 8 05 01 E5 D1 E0 05 E1 83 
   10.627133 2  001       Rx   d 8 05 01 C1 0C E5 D1 30 06 
   10.627140 2  001       Rx   d 8 05 01 E1 8E C0 8C E5 D1 
   10.628110 2  001       Rx   d 8 05 01 E0 07 E1 83 C0 8C 
   10.628127 2  001       Rx   d 8 05 01 E5 D1 10 08 E0 80 
   10.628137 2  001       Rx   d 8 05 01 01 02 E1 8E C4 0C 
   10.628149 2  001       Rx   d 8 05 01 E1 81 C4 0C E5 80 
   10.629097 2  001       Rx   d 2 02 01 
   10.629109 2  002       Rx   d 6 02 01 00 42 00 00 
   10.630092 2  001       Rx   d 8 05 01 C0 50 E8 BD 80 08 
   10.630108 2  001       Rx   d 8 05 01 00 00 00 00 00 00 
   10.631668 2  001       Rx   d 8 05 01 00 00 00 00 00 00 
   10.631681 2  001       Rx   d 8 05 01 E9 2D 4F F0 E1 B0 
   10.631692 2  001       Rx   d 8 05 01 80 00 E2 4D D0 0C 
   10.631703 2  001       Rx   d 8 05 01 03 09 00 01 0A 00 
   10.632669 2  001       Rx   d 8 05 01 00 7E EB FF FF 1D 
   10.632684 2  001       Rx   d 8 05 01 E5 D8 C0 00 E3 07 
   10.632693 2  001       Rx   d 8 05 01 21 78 E1 A0 11 8C 
   10.632705 2  001       Rx   d 8 05 01 E3 40 28 00 E0 81 
   10.632715 2  001       Rx   d 8 05 01 C1 0C E0 82 10 0C 
   10.633071 2  001       Rx   d 2 02 01 
   10.633083 2  002       Rx   d 6 02 01 00 42 00 00 
   10.634077 2  001       Rx   d 8 05 01 E5 98 C0 04 E5 91 
   10.634090 2  001       Rx   d 8 05 01 70 00 E5 8D C0 04 
   10.634097 2  001       Rx   d 8 05 01 E5 D8 60 01 E1 A0 
   10.635056 2  001       Rx   d 8 05 01 90 00 E5 91 A0 08 
   10.635073 2  001       Rx   d 8 05 01 EB FF FF 28 E3 A0 
   10.635083 2  001       Rx   d 8 05 01 C0 00 E3 A0 50 00 
   10.635092 2  001       Rx   d 8 05 01 E5 87 C0 00 E1 A0 
   10.636048 2  001       Rx   d 8 05 01 40 05 E5 D8 C0 08 
   10.636063 2  001       Rx   d 8 05 01 E3 5C 00 00 0A 00 
   10.636070 2  001       Rx   d 8 05 01 00 05 E3 56 00 00 
   10.636077 2  001       Rx   d 8 05 01 0A 00 00 03 E1 A0 
   10.637044 2  001       Rx   d 2 02 01 
   10.637058 2  002       Rx   d 6 02 01 00 42 00 00 
   10.638038 2  001       Rx   d 8 05 01 00 0A EB FF FF BD 
   10.638055 2  001       Rx   d 8 05 01 E1 B0 40 00 13 09 
   10.638063 2  001       Rx   d 8 05 01 40 03 E3 A0 C0 01 
   10.639028 2  001       Rx   d 8 05 01 E5 87 C0 00 E5 D8 
   10.639041 2  001       Rx   d 8 05 01 C0 0E E1 89 C0 0C 
   10.639048 2  001       Rx   d 8 05 01 E3 8C CC 0E E5 87 
   10.639056 2  001       Rx   d 8 05 01 C0 14 EB FF FF B8 
   10.640020 2  001       Rx   d 8 05 01 E3 A0 C0 03 E5 87 
   10.640034 2  001       Rx   d 8 05 01 C0 04 E5 D8 C0 0A 
   10.640041 2  001       Rx   d 8 05 01 E5 D8 00 0B E5 D8 
   10.640048 2  001       Rx   d 8 05 01 10 0C E1 80 C4 0C 
   10.641017 2  001       Rx   d 2 02 01 
   10.641034 2  002       Rx   d 6 02 01 00 42 00 00 
   10.642010 2  001       Rx   d 8 05 01 E2 88 B0 24 E5 D8 
   10.642026 2  001       Rx   d 8 05 01 E0 0D E1 81 C4 0C 
   10.642033 2  001       Rx   d 8 05 01 E2 88 A0 10 E3 A0 
   10.643004 2  001       Rx   d 8 05 01 90 04 E1 8E C4 0C 
   10.643018 2  001       Rx   d 8 05 01 E5 87 C0 48 E1 A0 
   10.643029 2  001       Rx   d 8 05 01 20 05 01 A0 00 00 
   10.643038 2  001       Rx   d 8 05 01 01 A0 00 00 01 A0 
   10.644071 2  001       Rx   d 8 05 01 00 00 E1 A0 00 07 
   10.644088 2  001       Rx   d 8 05 01 E1 A0 10 0A EB FF 
   10.644099 2  001       Rx   d 8 05 01 FF AC E4 DB 00 18 
   10.644109 2  001       Rx   d 8 05 01 E1 A0 C1 82 E2 00 
   10.644990 2  001       Rx   d 2 02 01 
   10.645008 2  002       Rx   d 6 02 01 00 42 00 00 
   10.645983 2  001       Rx   d 8 05 01 00 03 E2 59 90 01 
   10.645998 2  001       Rx   d 8 05 01 E2 82 20 01 E2 8A 
   10.646005 2  001       Rx   d 8 05 01 A0 18 E1 85 5C 10 
   10.646980 2  001       Rx   d 8 05 01 1A FF FF F4 E5 87 
   10.646996 2  001       Rx   d 8 05 01 50 6C E5 98 C0 70 
   10.647003 2  001       Rx   d 8 05 01 E5 87 C0 08 E5 98 
   10.647013 2  001       Rx   d 8 05 01 C0 74 E3 56 00 00 
   10.647971 2  001       Rx   d 8 05 01 E5 87 C0 0C 0A 00 
   10.647989 2  001       Rx   d 8 05 01 00 35 E3 54 00 00 
   10.648000 2  001       Rx   d 8 05 01 05 98 C0 80 1A 00 
   10.648010 2  001       Rx   d 8 05 01 00 32 E3 5C 00 00 
   10.648964 2  001       Rx   d 2 02 01 
   10.648980 2  002       Rx   d 6 02 01 00 42 00 00 
   10.649957 2  001       Rx   d 8 05 01 03 09 40 01 0A 00 
   10.649974 2  001       Rx   d 8 05 01 00 2F E3 A0 00 01 
   10.649982 2  001       Rx   d 8 05 01 E5 87 00 70 E1 2F 
   10.650949 2  001       Rx   d 8 05 01 FF 3C E5 97 C0 10 
   10.650963 2  001       Rx   d 8 05 01 E3 1C 04 01 05 D8 
   10.650971 2  001       Rx   d 8 05 01 C0 09 1A 00 00 24 
   10.650979 2  001       Rx   d 8 05 01 E2 87 10 98 E3 5C 
   10.651942 2  001       Rx   d 8 05 01 00 00 E5 9D C0 04 
   10.651958 2  001       Rx   d 8 05 01 13 A0 00 0A 03 A0 
   10.651968 2  001       Rx   d 8 05 01 00 05 E5 87 01 20 
   10.651978 2  001       Rx   d 8 05 01 E3 A0 00 00 E5 DC 
   10.652959 2  001       Rx   d 2 02 01 
   10.652973 2  002       Rx   d 6 02 01 00 42 00 00 
   10.653982 2  001       Rx   d 8 05 01 20 00 E5 DC 30 01 
   10.654030 2  001       Rx   d 8 05 01 E5 DC E0 02 E5 DC 
   10.655660 2  001       Rx   d 8 05 01 B0 03 E1 83 20 82 
   10.655679 2  001       Rx   d 8 05 01 E2 56 60 01 E1 8E 
   10.655689 2  001       Rx   d 8 05 01 24 82 E1 8B 22 02 
   10.655699 2  001       Rx   d 8 05 01 E1 80 24 02 E1 A0 
   10.656412 2  001       Rx   d 8 05 01 24 02 E4 81 20 04 
   10.656427 2  001       Rx   d 8 05 01 E5 DC 20 04 E2 8C 
   10.656434 2  001       Rx   d 8 05 01 C0 05 E0 82 00 00 
   10.656443 2  001       Rx   d 8 05 01 15 DC 20 00 E6 EF 
   10.657407 2  001       Rx   d 8 05 01 00 70 15 DC 30 01 
   10.657428 2  001       Rx   d 2 02 01 
   10.657434 2  002       Rx   d 6 02 01 00 42 00 00 
   10.658398 2  001       Rx   d 8 05 01 1A FF FF EF E1 A0 
   10.658415 2  001       Rx   d 8 05 01 C4 00 E2 4C CC 01 
   10.658422 2  001       Rx   d 8 05 01 E5 87 C0 94 E5 98 
   10.659392 2  001       Rx   d 8 05 01 C0 78 E5 87 C0 74 
   10.659409 2  001       Rx   d 8 05 01 E5 98 C0 7C E5 87 
   10.659418 2  001       Rx   d 8 05 01 C0 7C E5 97 C1 2C 
   10.659430 2  001       Rx   d 8 05 01 E5 8D C0 00 E5 97 
   10.660506 2  001       Rx   d 8 05 01 C1 28 E5 8D C0 00 
   10.660522 2  001       Rx   d 8 05 01 EA 00 00 03 E5 97 
   10.660533 2  001       Rx   d 8 05 01 C0 04 E3 09 40 0E 
   10.660544 2  001       Rx   d 8 05 01 E1 A0 00 04 EA 00 
   10.661052 2  001       Rx   d 2 02 01 
   10.661065 2  002       Rx   d 6 02 01 00 42 00 00 
   10.662373 2  001       Rx   d 8 05 01 00 01 E5 97 C0 04 
   10.662390 2  001       Rx   d 8 05 01 E1 A0 00 04 E3 8C 
   10.662397 2  001       Rx   d 8 05 01 C4 01 E5 87 C0 04 
   10.663366 2  001       Rx   d 8 05 01 E2 8D D0 0C E8 BD 
   10.663379 2  001       Rx   d 8 05 01 8F F0 00 00 00 00 
   10.663386 2  001       Rx   d 8 05 01 00 00 00 00 E1 A0 
   10.663394 2  001       Rx   d 8 05 01 C0 00 E3 A0 00 00 
   10.664359 2  001       Rx   d 8 05 01 E5 9C 10 04 E3 51 
   10.664374 2  001       Rx   d 8 05 01 00 00 15 DC C0 0D 
   10.664381 2  001       Rx   d 8 05 01 0A 00 00 0D E2 41 
   10.664388 2  001       Rx   d 8 05 01 10 08 E3 5C 00 00 
   10.665359 2  001       Rx   d 2 02 01 
   10.665370 2  002       Rx   d 6 02 01 00 42 00 00 
   10.666348 2  001       Rx   d 8 05 01 01 2F FF 1E E5 B1 
   10.666363 2  001       Rx   d 8 05 01 20 08 01 A0 00 00 
   10.666371 2  001       Rx   d 8 05 01 01 A0 00 00 E3 52 
   10.667339 2  001       Rx   d 8 05 01 00 00 15 92 20 00 
   10.667353 2  001       Rx   d 8 05 01 13 52 00 00 03 02 
   10.667360 2  001       Rx   d 8 05 01 00 60 E2 5C C0 01 
   10.667368 2  001       Rx   d 8 05 01 15 B1 20 08 1A FF 
   10.668332 2  001       Rx   d 8 05 01 FF F8 E1 2F FF 1E 
   10.668348 2  001       Rx   d 8 05 01 E5 DC C0 0D E3 5C 
   10.668356 2  001       Rx   d 8 05 01 00 00 13 02 00 70 
   10.668363 2  001       Rx   d 8 05 01 E1 2F FF 1E E1 A0 
   10.669328 2  001       Rx   d 2 02 01 
   10.669344 2  002       Rx   d 6 02 01 00 42 00 00 
   10.670323 2  001       Rx   d 8 05 01 C0 00 E3 A0 00 00 
   10.670341 2  001       Rx   d 8 05 01 E5 9C 10 08 E3 51 
   10.671313 2  001       Rx   d 8 05 01 00 00 15 DC C0 0E 
   10.671327 2  001       Rx   d 8 05 01 0A 00 00 0D E2 41 
   10.671335 2  001       Rx   d 8 05 01 10 08 E3 5C 00 00 
   10.671342 2  001       Rx   d 8 05 01 01 2F FF 1E E5 B1 
   10.672304 2  001       Rx   d 8 05 01 20 08 01 A0 00 00 
   10.672318 2  001       Rx   d 8 05 01 01 A0 00 00 E3 52 
   10.672325 2  001       Rx   d 8 05 01 00 00 15 92 20 00 
   10.672332 2  001       Rx   d 8 05 01 13 52 00 00 03 02 
   10.673299 2  001       Rx   d 8 05 01 00 60 E2 5C C0 01 
   10.673316 2  001       Rx   d 2 02 01 
   10.673322 2  002       Rx   d 6 02 01 00 42 00 00 
   10.674292 2  001       Rx   d 8 05 01 15 B1 20 08 1A FF 
   10.674308 2  001       Rx   d 8 05 01 FF F8 E1 2F FF 1E 
   10.674316 2  001       Rx   d 8 05 01 E5 DC C0 0E E3 5C 
   10.675287 2  001       Rx   d 8 05 01 00 00 13 02 00 70 
   10.675300 2  001       Rx   d 8 05 01 E1 2F FF 1E E9 2D 
   10.675307 2  001       Rx   d 8 05 01 40 08 E1 B0 30 00 
   10.675315 2  001       Rx   d 8 05 01 03 02 00 50 0A 00 
   10.676279 2  001       Rx   d 8 05 01 00 05 EB FF FF CA 
   10.676292 2  001       Rx   d 8 05 01 E3 50 00 00 18 BD 
   10.676301 2  001       Rx   d 8 05 01 80 08 E1 A0 00 03 
   10.676308 2  001       Rx   d 8 05 01 EB FF FF DE E8 BD 
   10.677272 2  001       Rx   d 2 02 01 
   10.677283 2  002       Rx   d 6 02 01 00 42 00 00 
   10.678265 2  001       Rx   d 8 05 01 80 08 E8 BD 80 08 
   10.678279 2  001       Rx   d 8 05 01 00 00 00 00 E3 71 
   10.678285 2  001       Rx   d 8 05 01 00 01 01 2F FF 1E 
   10.679756 2  001       Rx   d 8 05 01 E3 A0 C0 01 E3 C0 
   10.679770 2  001       Rx   d 8 05 01 00 FF E3 52 00 00 
   10.679778 2  001       Rx   d 8 05 01 E1 A0 C1 1C 1A 00 
   10.679785 2  001       Rx   d 8 05 01 00 08 E5 90 10 00 
   10.680751 2  001       Rx   d 8 05 01 E0 0C 10 01 E1 5C 
   10.680764 2  001       Rx   d 8 05 01 00 01 15 90 10 00 
   10.680771 2  001       Rx   d 8 05 01 01 2F FF 1E E1 8C 
   10.680778 2  001       Rx   d 8 05 01 C0 01 E5 80 C0 00 
   10.681296 2  001       Rx   d 2 02 01 
   10.681309 2  002       Rx   d 6 02 01 00 42 00 00 
   10.682736 2  001       Rx   d 8 05 01 E1 2F FF 1E 01 A0 
   10.682750 2  001       Rx   d 8 05 01 00 00 E5 90 10 00 
   10.683734 2  001       Rx   d 8 05 01 E0 0C 10 01 E1 5C 
   10.683753 2  001       Rx   d 8 05 01 00 01 05 90 10 00 
   10.683761 2  001       Rx   d 8 05 01 01 C1 C0 0C 05 80 
   10.683768 2  001       Rx   d 8 05 01 C0 00 E1 2F FF 1E 
   10.684725 2  001       Rx   d 8 05 01 00 00 00 00 E9 2D 
   10.684741 2  001       Rx   d 8 05 01 40 08 E3 51 00 00 
   10.684750 2  001       Rx   d 8 05 01 15 91 E0 00 E1 E0 
   10.684757 2  001       Rx   d 8 05 01 C0 02 10 0C E0 0E 
   10.684766 2  001       Rx   d 8 05 01 15 81 E0 00 E5 DD 
   10.685718 2  001       Rx   d 2 02 01 
   10.685731 2  002       Rx   d 6 02 01 00 42 00 00 
   10.686713 2  001       Rx   d 8 05 01 10 0B E3 51 00 00 
   10.686732 2  001       Rx   d 8 05 01 05 80 20 10 15 80 
   10.686739 2  001       Rx   d 8 05 01 20 0C E2 53 10 01 
   10.687704 2  001       Rx   d 8 05 01 05 90 10 1C 0A 00 
   10.687718 2  001       Rx   d 8 05 01 00 3E E2 51 10 01 
   10.687724 2  001       Rx   d 8 05 01 05 90 10 1C 0A 00 
   10.687730 2  001       Rx   d 8 05 01 00 2F E2 51 10 01 
   10.689158 2  001       Rx   d 8 05 01 05 90 10 1C 0A 00 
   10.689174 2  001       Rx   d 8 05 01 00 20 E2 51 10 01 
   10.689183 2  001       Rx   d 8 05 01 15 90 10 1C 0A 00 
   10.689194 2  001       Rx   d 8 05 01 00 0D E0 0C 10 01 
   10.689690 2  001       Rx   d 2 02 01 
   10.689702 2  002       Rx   d 6 02 01 00 42 00 00 
   10.690683 2  001       Rx   d 8 05 01 E5 80 10 1C E5 90 
   10.690699 2  001       Rx   d 8 05 01 10 18 E1 82 10 01 
   10.690706 2  001       Rx   d 8 05 01 E5 80 10 18 E5 90 
   10.691677 2  001       Rx   d 8 05 01 10 14 E0 0C 10 01 
   10.691692 2  001       Rx   d 8 05 01 E5 80 10 14 E5 90 
   10.691699 2  001       Rx   d 8 05 01 10 00 E0 0C C0 01 
   10.691706 2  001       Rx   d 8 05 01 E5 80 C0 00 E8 BD 
   10.692667 2  001       Rx   d 8 05 01 80 08 01 A0 00 00 
   10.692681 2  001       Rx   d 8 05 01 01 A0 00 00 E5 90 
   10.692689 2  001       Rx   d 8 05 01 10 1C E0 0C C0 01 
   10.692700 2  001       Rx   d 8 05 01 E5 80 C0 1C E5 90 
   10.693663 2  001       Rx   d 2 02 01 
   10.693675 2  002       Rx   d 6 02 01 00 42 00 00 
   10.694656 2  001       Rx   d 8 05 01 C0 18 E1 82 C0 0C 
   10.694672 2  001       Rx   d 8 05 01 E5 80 C0 18 E5 90 
   10.694679 2  001       Rx   d 8 05 01 C0 14 E1 82 C0 0C 
   10.695649 2  001       Rx   d 8 05 01 E5 80 C0 14 E5 90 
   10.695661 2  001       Rx   d 8 05 01 C0 00 E1 82 C0 0C 
   10.695668 2  001       Rx   d 8 05 01 E5 80 C0 00 E8 BD 
   10.695674 2  001       Rx   d 8 05 01 80 08 01 A0 00 00 
   10.696642 2  001       Rx   d 8 05 01 01 A0 00 00 01 A0 
   10.696668 2  001       Rx   d 8 05 01 00 00 E0 0C 10 01 
   10.696676 2  001       Rx   d 8 05 01 E5 80 10 1C E5 90 
   10.696683 2  001       Rx   d 8 05 01 10 18 E1 82 10 01 
   10.697636 2  001       Rx   d 2 02 01 
   10.697646 2  002       Rx   d 6 02 01 00 42 00 00 
   10.698631 2  001       Rx   d 8 05 01 E5 80 10 18 E5 90 
   10.698648 2  001       Rx   d 8 05 01 10 14 E0 0C C0 01 
   10.699623 2  001       Rx   d 8 05 01 E5 80 C0 14 E5 90 
   10.699638 2  001       Rx   d 8 05 01 C0 00 E1 82 C0 0C 
   10.699646 2  001       Rx   d 8 05 01 E5 80 C0 00 E8 BD 
   10.699654 2  001       Rx   d 8 05 01 80 08 E0 0C 10 01 
   10.700615 2  001       Rx   d 8 05 01 E5 80 10 1C E5 90 
   10.700632 2  001       Rx   d 8 05 01 10 18 E0 0C 10 01 
   10.700639 2  001       Rx   d 8 05 01 E5 80 10 18 E5 90 
   10.700645 2  001       Rx   d 8 05 01 10 14 E0 0C 10 01 
   10.701609 2  001       Rx   d 8 05 01 E5 80 10 14 E5 90 
   10.701627 2  001       Rx   d 2 02 01 
   10.701633 2  002       Rx   d 6 02 01 00 42 00 00 
   10.702606 2  001       Rx   d 8 05 01 10 00 E0 0C C0 01 
   10.702624 2  001       Rx   d 8 05 01 E5 80 C0 00 E8 BD 
   10.702631 2  001       Rx   d 8 05 01 80 08 E1 82 10 01 
   10.703598 2  001       Rx   d 8 05 01 E5 80 10 1C E5 90 
   10.703611 2  001       Rx   d 8 05 01 10 18 E0 0C 10 01 
   10.703619 2  001       Rx   d 8 05 01 E5 80 10 18 E5 90 
   10.703625 2  001       Rx   d 8 05 01 10 14 E0 0C 10 01 
   10.704586 2  001       Rx   d 8 05 01 E5 80 10 14 E5 90 
   10.704600 2  001       Rx   d 8 05 01 10 00 E0 0C C0 01 
   10.704607 2  001       Rx   d 8 05 01 E5 80 C0 00 E8 BD 
   10.704614 2  001       Rx   d 8 05 01 80 08 E9 2D 40 10 
   10.705582 2  001       Rx   d 2 02 01 
   10.705593 2  002       Rx   d 6 02 01 00 42 00 00 
   10.707074 2  001       Rx   d 8 05 01 E1 B0 40 00 03 02 
   10.707092 2  001       Rx   d 8 05 01 00 50 E2 4D D0 08 
   10.707100 2  001       Rx   d 8 05 01 0A 00 00 11 E5 94 
   10.707595 2  001       Rx   d 8 05 01 C0 00 E3 5C 00 00 
   10.707611 2  001       Rx   d 8 05 01 03 02 00 60 0A 00 
   10.707621 2  001       Rx   d 8 05 01 00 0D EB FF FD FD 
   10.707629 2  001       Rx   d 8 05 01 E5 94 00 00 E1 D4 
   10.708592 2  001       Rx   d 8 05 01 10 D8 E5 D4 20 09 
   10.708608 2  001       Rx   d 8 05 01 EB FF FF 81 E5 D4 
   10.708618 2  001       Rx   d 8 05 01 C0 11 E5 8D C0 00 
   10.708628 2  001       Rx   d 8 05 01 E5 D4 30 10 E5 94 
   10.709667 2  001       Rx   d 2 02 01 
   10.709682 2  002       Rx   d 6 02 01 00 42 00 00 
   10.711050 2  001       Rx   d 8 05 01 00 00 E5 94 10 04 
   10.711068 2  001       Rx   d 8 05 01 E5 94 20 0C EB FF 
   10.711076 2  001       Rx   d 8 05 01 FF 92 EB FF FE 95 
   10.712092 2  001       Rx   d 8 05 01 E3 A0 00 00 E2 8D 
   10.712108 2  001       Rx   d 8 05 01 D0 08 E8 BD 80 10 
   10.712118 2  001       Rx   d 8 05 01 00 00 00 00 00 00 
   10.712128 2  001       Rx   d 8 05 01 00 00 00 00 00 00 
   10.713034 2  001       Rx   d 8 05 01 E9 2D 47 F0 E2 4D 
   10.713049 2  001       Rx   d 8 05 01 D0 18 E1 A0 70 00 
   10.713057 2  001       Rx   d 8 05 01 EB FF FF 63 E1 B0 
   10.713065 2  001       Rx   d 8 05 01 80 00 05 D7 C0 0D 
   10.714027 2  001       Rx   d 2 02 01 
   10.714040 2  002       Rx   d 6 02 01 00 42 00 00 
   10.715020 2  001       Rx   d 8 05 01 1A 00 00 69 E5 97 
   10.715039 2  001       Rx   d 8 05 01 40 04 E3 5C 00 00 
   10.716012 2  001       Rx   d 8 05 01 0A 00 00 30 E3 A0 
   10.716028 2  001       Rx   d 8 05 01 50 01 E3 A0 90 00 
   10.716037 2  001       Rx   d 8 05 01 E5 D4 C0 05 E1 A0 
   10.716044 2  001       Rx   d 8 05 01 60 05 E3 A0 00 00 
   10.716051 2  001       Rx   d 8 05 01 01 A0 00 00 E3 5C 
   10.717005 2  001       Rx   d 8 05 01 00 00 0A 00 00 10 
   10.717021 2  001       Rx   d 8 05 01 E3 5C 00 01 85 D4 
   10.717028 2  001       Rx   d 8 05 01 A0 04 E1 A0 20 AC 
   10.717036 2  001       Rx   d 8 05 01 E1 A0 10 00 9A 00 
   10.718003 2  001       Rx   d 2 02 01 
   10.718015 2  002       Rx   d 6 02 01 00 42 00 00 
   10.718993 2  001       Rx   d 8 05 01 00 07 01 A0 00 00 
   10.719009 2  001       Rx   d 8 05 01 E0 81 30 0A E2 83 
   10.719016 2  001       Rx   d 8 05 01 E0 01 E2 52 20 01 
   10.719986 2  001       Rx   d 8 05 01 E1 80 0E 15 E1 80 
   10.720000 2  001       Rx   d 8 05 01 03 16 E2 81 10 02 
   10.720011 2  001       Rx   d 8 05 01 1A FF FF F8 E1 B0 
   10.720019 2  001       Rx   d 8 05 01 CF 8C 15 D4 C0 04 
   10.720980 2  001       Rx   d 8 05 01 10 81 C0 0C 11 80 
   10.720996 2  001       Rx   d 8 05 01 0C 16 E5 94 C0 00 
   10.721004 2  001       Rx   d 8 05 01 E5 D4 20 06 E5 D4 
   10.721012 2  001       Rx   d 8 05 01 10 07 E5 8D 00 0C 
   10.721725 2  001       Rx   d 2 02 01 
   10.721736 2  002       Rx   d 6 02 01 00 42 00 00 
   10.722965 2  001       Rx   d 8 05 01 E1 DC E0 D8 E5 9C 
   10.722981 2  001       Rx   d 8 05 01 A0 04 E5 DC 30 09 
   10.723960 2  001       Rx   d 8 05 01 E5 CD 20 10 E5 CD 
   10.723973 2  001       Rx   d 8 05 01 10 11 E5 CD E0 08 
   10.723981 2  001       Rx   d 8 05 01 E5 9C C0 00 E5 8D 
   10.723989 2  001       Rx   d 8 05 01 C0 00 E5 8D A0 04 
   10.723996 2  001       Rx   d 8 05 01 E1 A0 00 0D E5 CD 
   10.724954 2  001       Rx   d 8 05 01 30 09 EB FF FF B0 
   10.724969 2  001       Rx   d 8 05 01 E5 D7 C0 0D E2 89 
   10.724977 2  001       Rx   d 8 05 01 00 01 E2 84 40 08 
   10.724984 2  001       Rx   d 8 05 01 E6 EF 90 70 E1 59 
   10.725952 2  001       Rx   d 2 02 01 
   10.725963 2  002       Rx   d 6 02 01 00 42 00 00 
   10.726941 2  001       Rx   d 8 05 01 00 0C B5 D4 C0 05 
   10.726957 2  001       Rx   d 8 05 01 B3 A0 00 00 BA FF 
   10.726965 2  001       Rx   d 8 05 01 FF D4 E5 D7 C0 0E 
   10.727933 2  001       Rx   d 8 05 01 E5 97 40 08 E3 5C 
   10.727949 2  001       Rx   d 8 05 01 00 00 0A 00 00 1C 
   10.727959 2  001       Rx   d 8 05 01 E3 A0 60 01 E3 A0 
   10.727969 2  001       Rx   d 8 05 01 50 00 01 A0 00 00 
   10.728925 2  001       Rx   d 8 05 01 01 A0 00 00 01 A0 
   10.728938 2  001       Rx   d 8 05 01 00 00 E5 D4 00 04 
   10.728946 2  001       Rx   d 8 05 01 E5 94 C0 00 E5 D4 
   10.728954 2  001       Rx   d 8 05 01 10 05 E5 D4 A0 06 
   10.729919 2  001       Rx   d 2 02 01 
   10.729932 2  002       Rx   d 6 02 01 00 42 00 00 
   10.730918 2  001       Rx   d 8 05 01 E1 A0 20 16 E1 DC 
   10.730934 2  001       Rx   d 8 05 01 E0 D8 E5 9C 90 04 
   10.730941 2  001       Rx   d 8 05 01 E5 DC 30 09 E5 CD 
   10.731907 2  001       Rx   d 8 05 01 10 10 E5 CD A0 11 
   10.731922 2  001       Rx   d 8 05 01 E5 8D 20 0C E5 CD 
   10.731930 2  001       Rx   d 8 05 01 E0 08 E5 9C C0 00 
   10.731937 2  001       Rx   d 8 05 01 E5 8D C0 00 E5 8D 
   10.733903 2  001       Rx   d 8 05 01 90 04 E1 A0 00 0D 
   10.733920 2  001       Rx   d 8 05 01 E5 CD 30 09 EB FF 
   10.733928 2  001       Rx   d 8 05 01 FF 8D E2 85 00 01 
   10.733936 2  001       Rx   d 8 05 01 E5 D7 C0 0E E2 84 
   10.733943 2  001       Rx   d 2 02 01 
   10.733948 2  002       Rx   d 6 02 01 00 42 00 00 
   10.734885 2  001       Rx   d 8 05 01 40 08 E6 FF 50 70 
   10.734901 2  001       Rx   d 8 05 01 E1 55 00 0C BA FF 
   10.734909 2  001       Rx   d 8 05 01 FF E7 E3 0B CC 00 
   10.736079 2  001       Rx   d 8 05 01 E3 4F CF F7 E5 97 
   10.736095 2  001       Rx   d 8 05 01 00 10 E5 8C 00 08 
   10.736105 2  001       Rx   d 8 05 01 E5 97 00 14 E5 8C 
   10.736113 2  001       Rx   d 8 05 01 00 0C E5 97 00 1C 
   10.736891 2  001       Rx   d 8 05 01 E5 8C 00 18 E5 97 
   10.736909 2  001       Rx   d 8 05 01 00 1C E1 E0 00 00 
   10.736920 2  001       Rx   d 8 05 01 E5 8C 00 1C E3 E0 
   10.736961 2  001       Rx   d 8 05 01 E0 00 E5 8C E0 20 
   10.737878 2  001       Rx   d 2 02 01 
   10.737890 2  002       Rx   d 6 02 01 00 42 00 00 
   10.739358 2  001       Rx   d 8 05 01 E3 08 10 60 E5 97 
   10.739376 2  001       Rx   d 8 05 01 00 18 E3 40 18 03 
   10.739384 2  001       Rx   d 8 05 01 E5 8C 00 10 E5 97 
   10.740373 2  001       Rx   d 8 05 01 00 18 E5 81 70 00 
   10.740386 2  001       Rx   d 8 05 01 E1 E0 00 00 E5 8C 
   10.740398 2  001       Rx   d 8 05 01 00 14 E1 A0 00 08 
   10.740405 2  001       Rx   d 8 05 01 E2 8D D0 18 E8 BD 
   10.741342 2  001       Rx   d 8 05 01 87 F0 E3 08 C0 60 
   10.741356 2  001       Rx   d 8 05 01 E3 40 C8 03 E5 9C 
   10.741364 2  001       Rx   d 8 05 01 C0 00 E3 5C 00 00 
   10.741371 2  001       Rx   d 8 05 01 03 02 00 01 01 2F 
   10.742342 2  001       Rx   d 2 02 01 
   10.742356 2  002       Rx   d 6 02 01 00 42 00 00 
   10.743329 2  001       Rx   d 8 05 01 FF 1E E5 DC 20 0E 
   10.743344 2  001       Rx   d 8 05 01 E1 52 00 00 D3 02 
   10.743352 2  001       Rx   d 8 05 01 00 10 D1 2F FF 1E 
   10.744321 2  001       Rx   d 8 05 01 E5 9C C0 08 E3 A0 
   10.744332 2  001       Rx   d 8 05 01 20 01 E3 51 00 00 
   10.744340 2  001       Rx   d 8 05 01 E0 8C C1 80 E5 DC 
   10.744348 2  001       Rx   d 8 05 01 00 04 15 9C C0 00 
   10.745316 2  001       Rx   d 8 05 01 05 9C C0 00 E1 A0 
   10.745336 2  001       Rx   d 8 05 01 00 12 0A 00 00 03 
   10.745343 2  001       Rx   d 8 05 01 E5 9C C0 00 E5 8C 
   10.745351 2  001       Rx   d 8 05 01 00 0C E3 A0 00 00 
   10.746311 2  001       Rx   d 2 02 01 
   10.746324 2  002       Rx   d 6 02 01 00 42 00 00 
   10.747304 2  001       Rx   d 8 05 01 E1 2F FF 1E E5 9C 
   10.747320 2  001       Rx   d 8 05 01 C0 00 E5 8C 00 10 
   10.748296 2  001       Rx   d 8 05 01 E3 A0 00 00 E1 2F 
   10.748310 2  001       Rx   d 8 05 01 FF 1E 00 00 00 00 
   10.748318 2  001       Rx   d 8 05 01 E3 50 00 00 13 52 
   10.748325 2  001       Rx   d 8 05 01 00 00 03 09 00 01 
   10.749289 2  001       Rx   d 8 05 01 01 2F FF 1E E5 D0 
   10.749304 2  001       Rx   d 8 05 01 C0 01 E1 5C 00 01 
   10.749313 2  001       Rx   d 8 05 01 DA 00 00 01 E3 51 
   10.749320 2  001       Rx   d 8 05 01 00 08 BA 00 00 02 
   10.750282 2  001       Rx   d 8 05 01 E3 09 00 02 E1 2F 
   10.750296 2  001       Rx   d 2 02 01 
   10.750306 2  002       Rx   d 6 02 01 00 42 00 00 
   10.751276 2  001       Rx   d 8 05 01 FF 1E 01 A0 00 00 
   10.751291 2  001       Rx   d 8 05 01 E5 D0 C0 00 E3 07 
   10.751299 2  001       Rx   d 8 05 01 21 78 E3 40 28 00 
   10.752964 2  001       Rx   d 8 05 01 E1 A0 11 8C E0 81 
   10.752981 2  001       Rx   d 8 05 01 C1 0C E0 82 C0 0C 
   10.752989 2  001       Rx   d 8 05 01 E5 9C 10 00 E3 51 
   10.752997 2  001       Rx   d 8 05 01 00 00 15 9C C0 04 
   10.753266 2  001       Rx   d 8 05 01 0A 00 00 05 E3 5C 
   10.753279 2  001       Rx   d 8 05 01 00 00 15 90 C0 04 
   10.753288 2  001       Rx   d 8 05 01 0A 00 00 02 E3 5C 
   10.753294 2  001       Rx   d 8 05 01 00 00 13 A0 00 00 
   10.754266 2  001       Rx   d 2 02 01 
   10.754285 2  002       Rx   d 6 02 01 00 42 00 00 
   10.755251 2  001       Rx   d 8 05 01 11 2F FF 1E E3 09 
   10.755272 2  001       Rx   d 8 05 01 00 01 E1 2F FF 1E 
   10.756242 2  001       Rx   d 8 05 01 00 00 00 00 00 00 
   10.756254 2  001       Rx   d 8 05 01 00 00 E9 2D 41 F0 
   10.756261 2  001       Rx   d 8 05 01 E1 A0 60 00 E1 A0 
   10.756269 2  001       Rx   d 8 05 01 40 02 E1 A0 20 03 
   10.757234 2  001       Rx   d 8 05 01 E1 A0 70 01 E5 DD 
   10.757248 2  001       Rx   d 8 05 01 50 1B EB FF FF D8 
   10.757256 2  001       Rx   d 8 05 01 E3 50 00 00 18 BD 
   10.757264 2  001       Rx   d 8 05 01 81 F0 E5 96 C0 04 
   10.758228 2  001       Rx   d 8 05 01 E3 A0 10 05 E3 55 
   10.758242 2  001       Rx   d 2 02 01 
   10.758249 2  002       Rx   d 6 02 01 00 42 00 00 
   10.759223 2  001       Rx   d 8 05 01 00 00 E1 08 C1 87 
   10.759238 2  001       Rx   d 8 05 01 0A 00 00 04 E5 D8 
   10.759245 2  001       Rx   d 8 05 01 C0 04 E1 5C 00 05 
   10.760216 2  001       Rx   d 8 05 01 AA 00 00 02 E3 09 
   10.760229 2  001       Rx   d 8 05 01 00 10 E8 BD 81 F0 
   10.760236 2  001       Rx   d 8 05 01 E5 D8 50 04 E5 D6 
   10.760243 2  001       Rx   d 8 05 01 C0 00 E3 07 21 78 
   10.761210 2  001       Rx   d 8 05 01 E3 40 28 00 E1 A0 
   10.761228 2  001       Rx   d 8 05 01 11 8C E0 81 C1 0C 
   10.761238 2  001       Rx   d 8 05 01 E0 82 20 0C E7 E1 
   10.761248 2  001       Rx   d 8 05 01 14 54 E1 A0 E2 01 
   10.762202 2  001       Rx   d 2 02 01 
   10.762215 2  002       Rx   d 6 02 01 00 42 00 00 
   10.763299 2  001       Rx   d 8 05 01 E5 92 C0 00 E0 8E 
   10.763315 2  001       Rx   d 8 05 01 E1 81 E5 92 20 04 
   10.763323 2  001       Rx   d 8 05 01 E0 86 E0 0E E0 8C 
   10.764203 2  001       Rx   d 8 05 01 C1 07 E5 DE 70 18 
   10.764216 2  001       Rx   d 8 05 01 E5 9C C0 98 E3 57 
   10.764224 2  001       Rx   d 8 05 01 00 10 E7 E6 C4 5C 
   10.764231 2  001       Rx   d 8 05 01 E0 85 E0 0C E6 EF 
   10.765183 2  001       Rx   d 8 05 01 E0 7E CA 00 00 3E 
   10.765201 2  001       Rx   d 8 05 01 E3 A0 50 18 E1 01 
   10.765213 2  001       Rx   d 8 05 01 65 81 E5 D1 10 18 
   10.765224 2  001       Rx   d 8 05 01 E3 51 00 08 C5 D8 
   10.766180 2  001       Rx   d 2 02 01 
   10.766195 2  002       Rx   d 6 02 01 00 42 00 00 
   10.767691 2  001       Rx   d 8 05 01 10 04 DA 00 00 38 
   10.767704 2  001       Rx   d 8 05 01 E0 8C 10 01 E6 EF 
   10.767712 2  001       Rx   d 8 05 01 50 71 E1 55 00 0C 
   10.768667 2  001       Rx   d 8 05 01 D8 BD 81 F0 E0 45 
   10.768684 2  001       Rx   d 8 05 01 10 0C E3 51 00 02 
   10.768693 2  001       Rx   d 8 05 01 E0 2C 60 05 E2 06 
   10.768701 2  001       Rx   d 8 05 01 60 01 E1 A0 50 C1 
   10.769651 2  001       Rx   d 8 05 01 BA 00 00 20 E0 82 
   10.769669 2  001       Rx   d 8 05 01 11 0C E2 43 30 04 
   10.769677 2  001       Rx   d 8 05 01 01 A0 00 00 01 A0 
   10.769685 2  001       Rx   d 8 05 01 00 00 E1 5E 00 0C 
   10.770648 2  001       Rx   d 2 02 01 
   10.770666 2  002       Rx   d 6 02 01 00 42 00 00 
   10.771640 2  001       Rx   d 8 05 01 03 A0 40 00 0A 00 
   10.771655 2  001       Rx   d 8 05 01 00 03 E0 4C 70 0E 
   10.771662 2  001       Rx   d 8 05 01 E3 77 00 01 03 C4 
   10.772633 2  001       Rx   d 8 05 01 4B 06 E6 FF 40 74 
   10.772652 2  001       Rx   d 8 05 01 E1 C1 40 B0 E2 8C 
   10.772668 2  001       Rx   d 8 05 01 70 01 E6 EF 70 77 
   10.772681 2  001       Rx   d 8 05 01 E1 5E 00 07 E1 F3 
   10.773628 2  001       Rx   d 8 05 01 80 B4 E1 C1 80 B2 
   10.773643 2  001       Rx   d 8 05 01 03 A0 40 00 E2 81 
   10.773651 2  001       Rx   d 8 05 01 10 08 0A 00 00 03 
   10.773659 2  001       Rx   d 8 05 01 E0 47 80 0E E3 78 
   10.774621 2  001       Rx   d 2 02 01 
   10.774635 2  002       Rx   d 6 02 01 00 42 00 00 
   10.775932 2  001       Rx   d 8 05 01 00 01 03 C4 4B 06 
   10.775946 2  001       Rx   d 8 05 01 E6 FF 40 74 E0 82 
   10.775953 2  001       Rx   d 8 05 01 71 07 E2 55 50 01 
   10.776607 2  001       Rx   d 8 05 01 E2 8C C0 02 E1 C7 
   10.776624 2  001       Rx   d 8 05 01 40 B0 E6 EF C0 7C 
   10.776635 2  001       Rx   d 8 05 01 E1 D3 80 B2 02 83 
   10.776645 2  001       Rx   d 8 05 01 30 04 E1 C7 80 B2 
   10.777599 2  001       Rx   d 8 05 01 1A FF FF E2 E3 56 
   10.777616 2  001       Rx   d 8 05 01 00 00 D8 BD 81 F0 
   10.777624 2  001       Rx   d 8 05 01 E1 5E 00 0C 03 A0 
   10.777631 2  001       Rx   d 8 05 01 10 00 0A 00 00 03 
   10.778592 2  001       Rx   d 2 02 01 
   10.778604 2  002       Rx   d 6 02 01 00 42 00 00 
   10.779584 2  001       Rx   d 8 05 01 E0 4C 10 0E E3 71 
   10.779599 2  001       Rx   d 8 05 01 00 01 03 C4 4B 06 
   10.779607 2  001       Rx   d 8 05 01 E6 FF 10 74 E0 82 
   10.780579 2  001       Rx   d 8 05 01 C1 0C E1 CC 10 B0 
   10.780594 2  001       Rx   d 8 05 01 E1 D3 10 B0 E1 CC 
   10.780601 2  001       Rx   d 8 05 01 10 B2 E8 BD 81 F0 
   10.780608 2  001       Rx   d 8 05 01 E3 09 00 01 E8 BD 
   10.781572 2  001       Rx   d 8 05 01 81 F0 00 00 00 00 
   10.781587 2  001       Rx   d 8 05 01 00 00 00 00 00 00 
   10.781594 2  001       Rx   d 8 05 01 00 00 E9 2D 40 08 
   10.781603 2  001       Rx   d 8 05 01 E3 A0 C0 00 E5 8D 
   10.782565 2  001       Rx   d 2 02 01 
   10.782580 2  002       Rx   d 6 02 01 00 42 00 00 
   10.783710 2  001       Rx   d 8 05 01 C0 00 EB FF FF 8F 
   10.783724 2  001       Rx   d 8 05 01 E8 BD 80 08 00 00 
   10.784553 2  001       Rx   d 8 05 01 00 00 00 00 00 00 
   10.784567 2  001       Rx   d 8 05 01 00 00 00 00 E3 50 
   10.784573 2  001       Rx   d 8 05 01 00 00 E9 2D 40 08 
   10.784580 2  001       Rx   d 8 05 01 0A 00 00 1B E5 D0 
   10.785548 2  001       Rx   d 8 05 01 C0 01 E1 5C 00 01 
   10.785593 2  001       Rx   d 8 05 01 DA 00 00 01 E3 51 
   10.785601 2  001       Rx   d 8 05 01 00 08 BA 00 00 03 
   10.785608 2  001       Rx   d 8 05 01 E3 09 00 02 E8 BD 
   10.786540 2  001       Rx   d 8 05 01 80 08 01 A0 00 00 
   10.786563 2  001       Rx   d 2 02 01 
   10.786569 2  002       Rx   d 6 02 01 00 42 00 00 
   10.787579 2  001       Rx   d 8 05 01 01 A0 00 00 E5 D0 
   10.787594 2  001       Rx   d 8 05 01 C0 00 E3 07 E1 78 
   10.788528 2  001       Rx   d 8 05 01 E3 40 E8 00 E1 A0 
   10.788543 2  001       Rx   d 8 05 01 01 8C E0 80 C1 0C 
   10.788550 2  001       Rx   d 8 05 01 E0 8E C0 0C E5 9C 
   10.788558 2  001       Rx   d 8 05 01 00 04 E3 50 00 00 
   10.789519 2  001       Rx   d 8 05 01 15 9C C0 00 0A 00 
   10.789535 2  001       Rx   d 8 05 01 00 08 E0 8C C1 01 
   10.789542 2  001       Rx   d 8 05 01 E5 9C C0 98 E7 E6 
   10.789550 2  001       Rx   d 8 05 01 C4 5C E0 80 C1 0C 
   10.790543 2  001       Rx   d 8 05 01 E5 82 C0 00 E3 A0 
   10.790560 2  001       Rx   d 2 02 01 
   10.790568 2  002       Rx   d 6 02 01 00 42 00 00 
   10.791507 2  001       Rx   d 8 05 01 00 00 E2 8C CC 02 
   10.791523 2  001       Rx   d 8 05 01 E5 83 C0 00 E8 BD 
   10.791531 2  001       Rx   d 8 05 01 80 08 E3 09 00 01 
   10.792498 2  001       Rx   d 8 05 01 E8 BD 80 08 00 00 
   10.792513 2  001       Rx   d 8 05 01 00 00 00 00 00 00 
   10.792520 2  001       Rx   d 8 05 01 00 00 00 00 E3 50 
   10.792526 2  001       Rx   d 8 05 01 00 04 C3 A0 00 00 
   10.793508 2  001       Rx   d 8 05 01 C1 2F FF 1E E3 A0 
   10.793522 2  001       Rx   d 8 05 01 C0 0C E3 07 31 78 
   10.793530 2  001       Rx   d 8 05 01 E3 40 38 00 E1 6C 
   10.793540 2  001       Rx   d 8 05 01 0C 80 E7 93 00 0C 
   10.794486 2  001       Rx   d 2 02 01 
   10.794497 2  002       Rx   d 6 02 01 00 42 00 00 
   10.797117 2  001       Rx   d 8 05 01 E1 2F FF 1E 00 00 
   10.797133 2  001       Rx   d 8 05 01 00 00 00 00 00 00 
   10.797141 2  001       Rx   d 8 05 01 00 00 00 00 E3 50 
   10.797148 2  001       Rx   d 8 05 01 00 00 E9 2D 40 08 
   10.797155 2  001       Rx   d 8 05 01 15 D0 C0 01 03 09 
   10.797163 2  001       Rx   d 8 05 01 00 01 08 BD 80 08 
   10.797962 2  001       Rx   d 8 05 01 E1 5C 00 01 DA 00 
   10.797975 2  001       Rx   d 8 05 01 00 01 E3 51 00 08 
   10.797983 2  001       Rx   d 8 05 01 BA 00 00 01 E3 09 
   10.797991 2  001       Rx   d 8 05 01 00 02 E8 BD 80 08 
   10.797998 2  001       Rx   d 8 05 01 E5 D0 00 00 EB FF 
   10.798956 2  001       Rx   d 2 02 01 
   10.798968 2  002       Rx   d 6 02 01 00 42 00 00 
   10.799950 2  001       Rx   d 8 05 01 FF E6 E3 50 00 00 
   10.799964 2  001       Rx   d 8 05 01 E3 A0 20 01 0A 00 
   10.800942 2  001       Rx   d 8 05 01 00 08 E0 80 C1 01 
   10.800952 2  001       Rx   d 8 05 01 E1 A0 11 12 E1 A0 
   10.800960 2  001       Rx   d 8 05 01 18 01 E5 80 10 84 
   10.800967 2  001       Rx   d 8 05 01 E5 9C 00 98 E3 80 
   10.800975 2  001       Rx   d 8 05 01 01 02 E5 8C 00 98 
   10.801936 2  001       Rx   d 8 05 01 E3 A0 00 00 E8 BD 
   10.801950 2  001       Rx   d 8 05 01 80 08 E3 09 00 11 
   10.801959 2  001       Rx   d 8 05 01 E8 BD 80 08 00 00 
   10.801973 2  001       Rx   d 8 05 01 00 00 E9 2D 40 10 
   10.803109 2  001       Rx   d 2 02 01 
   10.803123 2  002       Rx   d 6 02 01 00 42 00 00 
   10.803925 2  001       Rx   d 8 05 01 E3 08 40 00 E3 40 
   10.803942 2  001       Rx   d 8 05 01 48 03 E2 4D D0 18 
   10.803951 2  001       Rx   d 8 05 01 E5 94 C0 04 E3 A0 
   10.804916 2  001       Rx   d 8 05 01 0C E1 E1 CD 00 B0 
   10.804930 2  001       Rx   d 8 05 01 E1 CD 00 B2 E5 9C 
   10.804937 2  001       Rx   d 8 05 01 20 18 E1 CD 00 B4 
   10.804945 2  001       Rx   d 8 05 01 E5 DC 10 14 E5 94 
   10.805909 2  001       Rx   d 8 05 01 00 00 E1 D2 20 B0 
   10.805923 2  001       Rx   d 8 05 01 E1 A0 30 0D EB FF 
   10.805931 2  001       Rx   d 8 05 01 FF 9C E3 50 00 00 
   10.805938 2  001       Rx   d 8 05 01 1A 00 00 3B E5 94 
   10.806904 2  001       Rx   d 2 02 01 
   10.806914 2  002       Rx   d 6 02 01 00 42 00 00 
   10.808419 2  001       Rx   d 8 05 01 C0 04 E5 94 00 00 
   10.808436 2  001       Rx   d 8 05 01 E5 DC 10 14 E2 84 
   10.808444 2  001       Rx   d 8 05 01 20 10 E2 84 30 14 
   10.808889 2  001       Rx   d 8 05 01 EB FF FF 9C E3 50 
   10.808906 2  001       Rx   d 8 05 01 00 00 1A 00 00 33 
   10.808913 2  001       Rx   d 8 05 01 E5 94 C0 04 E5 9C 
   10.808921 2  001       Rx   d 8 05 01 20 1C E3 A0 1B 03 
   10.809888 2  001       Rx   d 8 05 01 E1 CD 10 B0 E5 94 
   10.809901 2  001       Rx   d 8 05 01 00 00 E5 DC 10 15 
   10.809910 2  001       Rx   d 8 05 01 E1 D2 20 B0 E1 A0 
   10.809918 2  001       Rx   d 8 05 01 30 0D EB FF FF 89 
   10.810876 2  001       Rx   d 2 02 01 
   10.810888 2  002       Rx   d 6 02 01 00 42 00 00 
   10.811870 2  001       Rx   d 8 05 01 E3 50 00 00 1A 00 
   10.811887 2  001       Rx   d 8 05 01 00 28 E5 94 C0 04 
   10.811894 2  001       Rx   d 8 05 01 E5 94 00 00 E5 DC 
   10.812862 2  001       Rx   d 8 05 01 10 15 E2 84 20 18 
   10.812876 2  001       Rx   d 8 05 01 E2 84 30 1C EB FF 
   10.812884 2  001       Rx   d 8 05 01 FF 89 E3 50 00 00 
   10.812892 2  001       Rx   d 8 05 01 1A 00 00 20 E5 94 
   10.813855 2  001       Rx   d 8 05 01 C0 04 E5 94 00 00 
   10.813872 2  001       Rx   d 8 05 01 E5 DC 10 15 EB FF 
   10.813882 2  001       Rx   d 8 05 01 FF B3 E3 50 00 00 
   10.813892 2  001       Rx   d 8 05 01 1A 00 00 1A E3 A0 
   10.814918 2  001       Rx   d 2 02 01 
   10.814928 2  002       Rx   d 6 02 01 00 42 00 00 
   10.816050 2  001       Rx   d 8 05 01 1C C5 E1 CD 10 B8 
   10.816063 2  001       Rx   d 8 05 01 E3 A0 EC 12 E1 CD 
   10.816834 2  001       Rx   d 8 05 01 E0 B2 E3 A0 CC A6 
   10.816850 2  001       Rx   d 8 05 01 E1 CD C0 B4 E3 A0 
   10.816859 2  001       Rx   d 8 05 01 3B 09 E1 CD 30 B6 
   10.816870 2  001       Rx   d 8 05 01 E3 A0 0C A3 E1 CD 
   10.816879 2  001       Rx   d 8 05 01 00 BA E5 94 10 04 
   10.817828 2  001       Rx   d 8 05 01 E3 A0 2C 11 E1 CD 
   10.817842 2  001       Rx   d 8 05 01 20 B0 E3 A0 EC A5 
   10.817849 2  001       Rx   d 8 05 01 E1 CD E0 BC E3 A0 
   10.817857 2  001       Rx   d 8 05 01 C9 03 E1 CD C0 BE 
   10.818824 2  001       Rx   d 2 02 01 
   10.818837 2  002       Rx   d 6 02 01 00 42 00 00 
   10.819824 2  001       Rx   d 8 05 01 E3 A0 3C AA E1 CD 
   10.819854 2  001       Rx   d 8 05 01 31 B0 E5 91 C0 20 
   10.820830 2  001       Rx   d 8 05 01 E3 A0 EC 36 E1 CD 
   10.820846 2  001       Rx   d 8 05 01 E1 B2 E5 94 00 00 
   10.820854 2  001       Rx   d 8 05 01 E5 D1 10 16 E1 DC 
   10.820862 2  001       Rx   d 8 05 01 20 B0 E1 A0 30 0D 
   10.822409 2  001       Rx   d 8 05 01 EB FF FF 5E E2 8D 
   10.822426 2  001       Rx   d 8 05 01 D0 18 E8 BD 80 10 
   10.822436 2  001       Rx   d 8 05 01 00 00 00 00 E3 50 
   10.822447 2  001       Rx   d 8 05 01 00 00 13 52 00 00 
   10.822829 2  001       Rx   d 8 05 01 03 09 00 01 01 2F 
   10.822842 2  001       Rx   d 2 02 01 
   10.822849 2  002       Rx   d 6 02 01 00 42 00 00 
   10.823813 2  001       Rx   d 8 05 01 FF 1E E5 D0 C0 01 
   10.823828 2  001       Rx   d 8 05 01 E1 5C 00 01 DA 00 
   10.825282 2  001       Rx   d 8 05 01 00 01 E3 51 00 08 
   10.825301 2  001       Rx   d 8 05 01 BA 00 00 02 E3 09 
   10.825311 2  001       Rx   d 8 05 01 00 02 E1 2F FF 1E 
   10.825320 2  001       Rx   d 8 05 01 01 A0 00 00 E5 D0 
   10.826270 2  001       Rx   d 8 05 01 C0 00 E3 07 31 78 
   10.826283 2  001       Rx   d 8 05 01 E3 40 38 00 E1 A0 
   10.826293 2  001       Rx   d 8 05 01 01 8C E0 80 C1 0C 
   10.826303 2  001       Rx   d 8 05 01 E3 A0 00 00 E7 93 
   10.827265 2  001       Rx   d 8 05 01 C0 0C E3 A0 30 01 
   10.827280 2  001       Rx   d 2 02 01 
   10.827286 2  002       Rx   d 6 02 01 00 42 00 00 
   10.828259 2  001       Rx   d 8 05 01 E5 9C C0 84 E1 A0 
   10.828276 2  001       Rx   d 8 05 01 C8 2C E0 03 C1 3C 
   10.828283 2  001       Rx   d 8 05 01 E5 C2 C0 00 E1 2F 
   10.829251 2  001       Rx   d 8 05 01 FF 1E 00 00 00 00 
   10.829263 2  001       Rx   d 8 05 01 00 00 00 00 00 00 
   10.829271 2  001       Rx   d 8 05 01 00 00 E9 2D 40 70 
   10.829278 2  001       Rx   d 8 05 01 E3 08 40 00 E3 40 
   10.830244 2  001       Rx   d 8 05 01 48 03 E5 94 C0 04 
   10.830261 2  001       Rx   d 8 05 01 E1 A0 50 00 E5 94 
   10.830268 2  001       Rx   d 8 05 01 00 00 E2 4D D0 08 
   10.830276 2  001       Rx   d 8 05 01 E5 DC 10 15 E1 A0 
   10.831450 2  001       Rx   d 2 02 01 
   10.831463 2  002       Rx   d 6 02 01 00 42 00 00 
   10.832234 2  001       Rx   d 8 05 01 20 0D EB FF FF D9 
   10.832252 2  001       Rx   d 8 05 01 E3 50 00 00 E5 DD 
   10.832260 2  001       Rx   d 8 05 01 C0 00 1A 00 00 1F 
   10.833396 2  001       Rx   d 8 05 01 E3 5C 00 00 05 94 
   10.833410 2  001       Rx   d 8 05 01 C0 04 1A 00 00 1C 
   10.833420 2  001       Rx   d 8 05 01 E3 A0 60 00 E5 9C 
   10.833431 2  001       Rx   d 8 05 01 10 28 E3 51 00 00 
   10.834475 2  001       Rx   d 8 05 01 E5 DD 10 00 0A 00 
   10.834490 2  001       Rx   d 8 05 01 00 13 01 A0 00 00 
   10.834497 2  001       Rx   d 8 05 01 01 A0 00 00 01 A0 
   10.834508 2  001       Rx   d 8 05 01 00 00 E3 50 00 00 
   10.835001 2  001       Rx   d 2 02 01 
   10.835015 2  002       Rx   d 6 02 01 00 42 00 00 
   10.837245 2  001       Rx   d 8 05 01 1A 00 00 12 E3 51 
   10.837265 2  001       Rx   d 8 05 01 00 00 1A 00 00 0C 
   10.837273 2  001       Rx   d 8 05 01 E5 9C C0 24 E1 2F 
   10.837282 2  001       Rx   d 8 05 01 FF 3C E5 94 C0 04 
   10.837290 2  001       Rx   d 8 05 01 E5 94 00 00 E5 DC 
   10.837297 2  001       Rx   d 8 05 01 10 15 E1 A0 20 0D 
   10.837305 2  001       Rx   d 8 05 01 EB FF FF C0 E5 94 
   10.838190 2  001       Rx   d 8 05 01 C0 04 E2 86 60 01 
   10.838207 2  001       Rx   d 8 05 01 E5 9C 10 28 E1 56 
   10.838217 2  001       Rx   d 8 05 01 00 01 E5 DD 10 00 
   10.838226 2  001       Rx   d 8 05 01 3A FF FF EE E3 50 
   10.839185 2  001       Rx   d 2 02 01 
   10.839197 2  002       Rx   d 6 02 01 00 42 00 00 
   10.840179 2  001       Rx   d 8 05 01 00 00 05 DD C0 00 
   10.840195 2  001       Rx   d 8 05 01 03 5C 00 00 01 A0 
   10.840203 2  001       Rx   d 8 05 01 00 05 E2 8D D0 08 
   10.841173 2  001       Rx   d 8 05 01 E8 BD 80 70 00 00 
   10.841186 2  001       Rx   d 8 05 01 00 00 E3 51 00 00 
   10.841193 2  001       Rx   d 8 05 01 E9 2D 40 08 E3 A0 
   10.841201 2  001       Rx   d 8 05 01 C0 00 0A 00 00 11 
   10.842167 2  001       Rx   d 8 05 01 E3 0F 33 00 E2 40 
   10.842181 2  001       Rx   d 8 05 01 20 02 E1 A0 00 0C 
   10.842190 2  001       Rx   d 8 05 01 E3 4F 3F FF E1 F2 
   10.842198 2  001       Rx   d 8 05 01 E0 B2 01 A0 00 00 
   10.843159 2  001       Rx   d 2 02 01 
   10.843179 2  002       Rx   d 6 02 01 00 42 00 00 
   10.844152 2  001       Rx   d 8 05 01 01 A0 00 00 01 A0 
   10.844170 2  001       Rx   d 8 05 01 00 00 E2 80 00 01 
   10.844178 2  001       Rx   d 8 05 01 E0 03 E0 0E E3 5E 
   10.845145 2  001       Rx   d 8 05 01 0A 0A 13 04 C0 06 
   10.845161 2  001       Rx   d 8 05 01 E1 51 00 00 E6 FF 
   10.845169 2  001       Rx   d 8 05 01 C0 7C 9A 00 00 02 
   10.845177 2  001       Rx   d 8 05 01 E3 5C 00 00 01 F2 
   10.846138 2  001       Rx   d 8 05 01 E0 B2 0A FF FF F5 
   10.846152 2  001       Rx   d 8 05 01 E1 A0 00 0C E8 BD 
   10.846159 2  001       Rx   d 8 05 01 80 08 E9 2D 40 38 
   10.846168 2  001       Rx   d 8 05 01 E1 A0 40 01 E1 A0 
   10.847133 2  001       Rx   d 2 02 01 
   10.847145 2  002       Rx   d 6 02 01 00 42 00 00 
   10.848125 2  001       Rx   d 8 05 01 50 00 E3 04 00 10 
   10.848146 2  001       Rx   d 8 05 01 EB FF FF B2 E1 A0 
   10.849119 2  001       Rx   d 8 05 01 C0 05 E3 50 00 00 
   10.849134 2  001       Rx   d 8 05 01 18 BD 80 38 E3 08 
   10.849141 2  001       Rx   d 8 05 01 50 00 E3 40 58 03 
   10.850123 2  001       Rx   d 8 05 01 E5 95 00 18 E5 95 
   10.850137 2  001       Rx   d 8 05 01 10 04 E1 C0 C0 B2 
   10.850145 2  001       Rx   d 8 05 01 E5 95 00 00 E5 D1 
   10.850152 2  001       Rx   d 8 05 01 10 15 EB FF FF 1F 
   10.851120 2  001       Rx   d 8 05 01 E3 50 00 00 18 BD 
   10.851138 2  001       Rx   d 8 05 01 80 38 E3 04 00 11 
   10.851149 2  001       Rx   d 2 02 01 
   10.851156 2  002       Rx   d 6 02 01 00 42 00 00 
   10.852098 2  001       Rx   d 8 05 01 EB FF FF A3 E3 50 
   10.852112 2  001       Rx   d 8 05 01 00 00 18 BD 80 38 
   10.853598 2  001       Rx   d 8 05 01 E5 95 C0 1C E3 54 
   10.853652 2  001       Rx   d 8 05 01 00 00 E1 DC C0 B2 
   10.853663 2  001       Rx   d 8 05 01 E1 CD C0 B0 15 DD 
   10.853675 2  001       Rx   d 8 05 01 C0 01 15 C4 C0 00 
   10.853689 2  001       Rx   d 8 05 01 E1 A0 00 0D E3 A0 
   10.854583 2  001       Rx   d 8 05 01 10 01 EB FF FF C8 
   10.854602 2  001       Rx   d 8 05 01 E8 BD 80 38 E9 2D 
   10.854614 2  001       Rx   d 8 05 01 41 F0 E1 A0 60 03 
   10.854625 2  001       Rx   d 8 05 01 E1 B0 70 00 E1 A0 
   10.855576 2  001       Rx   d 2 02 01 
   10.855595 2  002       Rx   d 6 02 01 00 42 00 00 
   10.856358 2  001       Rx   d 8 05 01 80 01 0A 00 00 40 
   10.856372 2  001       Rx   d 8 05 01 E3 58 00 00 E3 08 
   10.856380 2  001       Rx   d 8 05 01 40 00 0A 00 00 3D 
   10.857562 2  001       Rx   d 8 05 01 E3 40 48 03 E5 94 
   10.857578 2  001       Rx   d 8 05 01 C0 00 E3 5C 00 00 
   10.857586 2  001       Rx   d 8 05 01 13 04 00 02 18 BD 
   10.857594 2  001       Rx   d 8 05 01 81 F0 E3 52 00 00 
   10.858553 2  001       Rx   d 8 05 01 0A 00 00 02 EB FF 
   10.858566 2  001       Rx   d 8 05 01 FC 5B E3 50 00 00 
   10.858574 2  001       Rx   d 8 05 01 1A 00 00 2E E3 A0 
   10.858582 2  001       Rx   d 8 05 01 00 00 E5 84 00 24 
   10.859554 2  001       Rx   d 2 02 01 
   10.859566 2  002       Rx   d 6 02 01 00 42 00 00 
   10.860545 2  001       Rx   d 8 05 01 E5 84 00 0C E1 A0 
   10.860560 2  001       Rx   d 8 05 01 C0 00 E5 C4 C0 28 
   10.860568 2  001       Rx   d 8 05 01 E5 C4 C0 29 E2 84 
   10.861537 2  001       Rx   d 8 05 01 50 2A E5 C4 C0 08 
   10.861551 2  001       Rx   d 8 05 01 E5 C4 C0 20 E5 C5 
   10.861558 2  001       Rx   d 8 05 01 00 00 E5 C4 C0 2B 
   10.861565 2  001       Rx   d 8 05 01 E5 C4 C0 2C E5 C4 
   10.862529 2  001       Rx   d 8 05 01 C0 2D E5 C4 C0 2E 
   10.862542 2  001       Rx   d 8 05 01 E5 C4 C0 2F E5 C4 
   10.862548 2  001       Rx   d 8 05 01 C0 30 E5 C4 C0 31 
   10.862556 2  001       Rx   d 8 05 01 E5 C4 C0 32 E5 84 
   10.863548 2  001       Rx   d 2 02 01 
   10.863558 2  002       Rx   d 6 02 01 00 42 00 00 
   10.864515 2  001       Rx   d 8 05 01 80 04 E5 84 70 00 
   10.864528 2  001       Rx   d 8 05 01 EB FF FF 04 E3 50 
   10.864537 2  001       Rx   d 8 05 01 00 00 1A 00 00 17 
   10.865509 2  001       Rx   d 8 05 01 E3 A0 0B 03 E1 A0 
   10.865525 2  001       Rx   d 8 05 01 10 05 EB FF FF B3 
   10.865534 2  001       Rx   d 8 05 01 E3 50 00 00 05 D5 
   10.865542 2  001       Rx   d 8 05 01 C0 00 1A 00 00 11 
   10.866502 2  001       Rx   d 8 05 01 E3 5C 00 30 0A 00 
   10.866515 2  001       Rx   d 8 05 01 00 07 E3 5C 00 21 
   10.866523 2  001       Rx   d 8 05 01 0A 00 00 05 E3 5C 
   10.866531 2  001       Rx   d 8 05 01 00 20 0A 00 00 03 
   10.867498 2  001       Rx   d 2 02 01 
   10.867511 2  002       Rx   d 6 02 01 00 42 00 00 
   10.868487 2  001       Rx   d 8 05 01 E3 5C 00 11 13 5C 
   10.868502 2  001       Rx   d 8 05 01 00 10 13 04 00 0F 
   10.868509 2  001       Rx   d 8 05 01 1A 00 00 07 E3 56 
   10.869920 2  001       Rx   d 8 05 01 00 00 08 BD 81 F0 
   10.869940 2  001       Rx   d 8 05 01 E3 A0 0C 06 E1 A0 
   10.869949 2  001       Rx   d 8 05 01 10 06 EB FF FF A1 
   10.869957 2  001       Rx   d 8 05 01 E3 50 00 00 05 D5 
   10.870499 2  001       Rx   d 8 05 01 C0 00 0A 00 00 02 
   10.870513 2  001       Rx   d 8 05 01 E3 A0 C0 00 E5 84 
   10.870522 2  001       Rx   d 8 05 01 C0 00 E8 BD 81 F0 
   10.870529 2  001       Rx   d 8 05 01 E5 C6 C0 01 E8 BD 
   10.871469 2  001       Rx   d 2 02 01 
   10.871482 2  002       Rx   d 6 02 01 00 42 00 00 
   10.872462 2  001       Rx   d 8 05 01 81 F0 E3 04 00 01 
   10.872479 2  001       Rx   d 8 05 01 E8 BD 81 F0 E9 2D 
   10.872487 2  001       Rx   d 8 05 01 47 F0 E1 A0 50 02 
   10.873454 2  001       Rx   d 8 05 01 E5 9D 60 20 E1 A0 
   10.873467 2  001       Rx   d 8 05 01 70 00 E5 DD 40 27 
   10.873475 2  001       Rx   d 8 05 01 E1 A0 80 01 E1 A0 
   10.873482 2  001       Rx   d 8 05 01 20 06 EB FF FD FB 
   10.874447 2  001       Rx   d 8 05 01 E3 50 00 00 18 BD 
   10.874460 2  001       Rx   d 8 05 01 87 F0 E3 53 00 00 
   10.874468 2  001       Rx   d 8 05 01 03 09 00 01 08 BD 
   10.874476 2  001       Rx   d 8 05 01 87 F0 E5 97 C0 04 
   10.875442 2  001       Rx   d 2 02 01 
   10.875453 2  002       Rx   d 6 02 01 00 42 00 00 
   10.876437 2  001       Rx   d 8 05 01 E3 A0 10 05 E3 54 
   10.876453 2  001       Rx   d 8 05 01 00 00 E1 0C C1 88 
   10.876461 2  001       Rx   d 8 05 01 0A 00 00 04 E5 DC 
   10.877436 2  001       Rx   d 8 05 01 C0 04 E1 5C 00 04 
   10.877448 2  001       Rx   d 8 05 01 AA 00 00 02 E3 09 
   10.877456 2  001       Rx   d 8 05 01 00 10 E8 BD 87 F0 
   10.877464 2  001       Rx   d 8 05 01 E5 DC 40 04 E5 D7 
   10.878461 2  001       Rx   d 8 05 01 C0 00 E3 07 21 78 
   10.878474 2  001       Rx   d 8 05 01 E3 40 28 00 E1 A0 
   10.878484 2  001       Rx   d 8 05 01 11 8C E0 81 C1 0C 
   10.878495 2  001       Rx   d 8 05 01 E0 82 10 0C E7 E1 
   10.879913 2  001       Rx   d 2 02 01 
   10.879928 2  002       Rx   d 6 02 01 00 42 00 00 
   10.880838 2  001       Rx   d 8 05 01 C4 55 E3 A0 50 00 
   10.880854 2  001       Rx   d 8 05 01 E1 A0 A2 0C E5 91 
   10.880867 2  001       Rx   d 8 05 01 20 00 E0 82 E1 08 
   10.881898 2  001       Rx   d 8 05 01 E0 8A 21 8C E5 91 
   10.881911 2  001       Rx   d 8 05 01 A0 04 E0 87 90 02 
   10.881919 2  001       Rx   d 8 05 01 E5 9E 80 98 E3 00 
   10.881927 2  001       Rx   d 8 05 01 12 02 E1 C3 50 B0 
   10.882993 2  001       Rx   d 8 05 01 E0 81 20 0A E5 D9 
   10.883008 2  001       Rx   d 8 05 01 E0 18 E7 E6 14 58 
   10.883020 2  001       Rx   d 8 05 01 E3 5E 00 10 E3 A0 
   10.883030 2  001       Rx   d 8 05 01 E0 18 CA 00 00 33 
   10.883552 2  001       Rx   d 2 02 01 
   10.883565 2  002       Rx   d 6 02 01 00 42 00 00 
   10.884882 2  001       Rx   d 8 05 01 E1 0C 7E 8C E5 DC 
   10.884899 2  001       Rx   d 8 05 01 C0 18 E3 5C 00 08 
   10.886718 2  001       Rx   d 8 05 01 E0 84 C0 01 DA 00 
   10.886736 2  001       Rx   d 8 05 01 00 2E E6 EF C0 7C 
   10.886761 2  001       Rx   d 8 05 01 E1 5C 00 01 D8 BD 
   10.886770 2  001       Rx   d 8 05 01 87 F0 E0 4C E0 01 
   10.886778 2  001       Rx   d 8 05 01 E3 5E 00 02 E0 21 
   10.886789 2  001       Rx   d 8 05 01 40 0C E2 04 A0 01 
   10.886801 2  001       Rx   d 8 05 01 E1 A0 C0 CE BA 00 
   10.886808 2  001       Rx   d 8 05 01 00 1A E1 A0 E1 01 
   10.887640 2  001       Rx   d 8 05 01 E0 8E 40 02 E2 44 
   10.887656 2  001       Rx   d 2 02 01 
   10.887662 2  002       Rx   d 6 02 01 00 42 00 00 
   10.889641 2  001       Rx   d 8 05 01 40 02 E0 8E 50 02 
   10.889657 2  001       Rx   d 8 05 01 E2 42 90 02 E2 46 
   10.889669 2  001       Rx   d 8 05 01 60 04 01 A0 00 00 
   10.889679 2  001       Rx   d 8 05 01 E1 D3 70 B0 E2 81 
   10.889689 2  001       Rx   d 8 05 01 E0 01 E0 D4 80 B8 
   10.889698 2  001       Rx   d 8 05 01 E6 EF E0 7E E1 88 
   10.890718 2  001       Rx   d 8 05 01 70 07 E1 C3 70 B0 
   10.890733 2  001       Rx   d 8 05 01 E1 A0 E1 0E E0 D5 
   10.890744 2  001       Rx   d 8 05 01 70 B8 E1 E6 70 B4 
   10.890754 2  001       Rx   d 8 05 01 E1 99 80 BE E2 81 
   10.891634 2  001       Rx   d 8 05 01 10 02 E1 D3 70 B0 
   10.891648 2  001       Rx   d 2 02 01 
   10.891654 2  002       Rx   d 6 02 01 00 42 00 00 
   10.892827 2  001       Rx   d 8 05 01 E2 5C C0 01 E6 EF 
   10.892845 2  001       Rx   d 8 05 01 10 71 E1 88 70 07 
   10.892853 2  001       Rx   d 8 05 01 E1 C3 70 B0 E1 92 
   10.893822 2  001       Rx   d 8 05 01 E0 BE E1 C6 E0 B2 
   10.893836 2  001       Rx   d 8 05 01 1A FF FF EC E2 86 
   10.893844 2  001       Rx   d 8 05 01 60 04 E3 5A 00 00 
   10.893852 2  001       Rx   d 8 05 01 D8 BD 87 F0 E1 A0 
   10.894812 2  001       Rx   d 8 05 01 C1 01 E1 D3 10 B0 
   10.894826 2  001       Rx   d 8 05 01 E0 82 E0 0C E1 5E 
   10.894834 2  001       Rx   d 8 05 01 E0 B2 E1 8E 10 01 
   10.894843 2  001       Rx   d 8 05 01 E1 C3 10 B0 E1 92 
   10.895806 2  001       Rx   d 2 02 01 
   10.895820 2  002       Rx   d 6 02 01 00 42 00 00 
   10.896800 2  001       Rx   d 8 05 01 C0 BC E1 C6 C0 B0 
   10.896817 2  001       Rx   d 8 05 01 E8 BD 87 F0 E3 09 
   10.896825 2  001       Rx   d 8 05 01 00 01 E8 BD 87 F0 
   10.897792 2  001       Rx   d 8 05 01 00 00 00 00 00 00 
   10.897805 2  001       Rx   d 8 05 01 00 00 00 00 00 00 
   10.897810 2  001       Rx   d 8 05 01 E9 2D 40 00 E2 4D 
   10.897818 2  001       Rx   d 8 05 01 D0 0C E5 9D C0 10 
   10.898786 2  001       Rx   d 8 05 01 E5 8D C0 00 E3 A0 
   10.898805 2  001       Rx   d 8 05 01 E0 00 E5 8D E0 04 
   10.898815 2  001       Rx   d 8 05 01 EB FF FF 90 E2 8D 
   10.898826 2  001       Rx   d 8 05 01 D0 0C E8 BD 80 00 
   10.899780 2  001       Rx   d 2 02 01 
   10.899793 2  002       Rx   d 6 02 01 00 42 00 00 
   10.900772 2  001       Rx   d 8 05 01 00 00 00 00 00 00 
   10.900789 2  001       Rx   d 8 05 01 00 00 00 00 00 00 
   10.901766 2  001       Rx   d 8 05 01 E9 2D 4F F0 E3 08 
   10.901782 2  001       Rx   d 8 05 01 40 00 E2 4D D0 34 
   10.901790 2  001       Rx   d 8 05 01 E1 A0 50 00 E3 40 
   10.901797 2  001       Rx   d 8 05 01 48 03 E1 A0 60 01 
   10.902759 2  001       Rx   d 8 05 01 E5 94 C0 00 E3 5C 
   10.902773 2  001       Rx   d 8 05 01 00 00 03 04 00 03 
   10.902780 2  001       Rx   d 8 05 01 0A 00 00 C2 E3 55 
   10.902788 2  001       Rx   d 8 05 01 00 00 13 56 00 00 
   10.903755 2  001       Rx   d 8 05 01 03 04 00 09 0A 00 
   10.903774 2  001       Rx   d 2 02 01 
   10.903780 2  002       Rx   d 6 02 01 00 42 00 00 
   10.905225 2  001       Rx   d 8 05 01 00 BE E3 A0 C0 00 
   10.905243 2  001       Rx   d 8 05 01 E5 C6 C0 00 E5 D4 
   10.905738 2  001       Rx   d 8 05 01 C0 20 E3 5C 00 00 
   10.905749 2  001       Rx   d 8 05 01 1A 00 00 0C E5 94 
   10.905756 2  001       Rx   d 8 05 01 C0 04 E5 94 00 00 
   10.905763 2  001       Rx   d 8 05 01 E5 DC 10 16 EB FF 
   10.906732 2  001       Rx   d 8 05 01 FE 3C E3 50 00 00 
   10.906747 2  001       Rx   d 8 05 01 12 8D D0 34 1A 00 
   10.906755 2  001       Rx   d 8 05 01 00 B3 E3 A0 C0 01 
   10.906763 2  001       Rx   d 8 05 01 E2 8D D0 34 E5 C4 
   10.907725 2  001       Rx   d 8 05 01 C0 20 EA 00 00 AF 
   10.907739 2  001       Rx   d 2 02 01 
   10.907745 2  002       Rx   d 6 02 01 00 42 00 00 
   10.908854 2  001       Rx   d 8 05 01 01 A0 00 00 01 A0 
   10.908871 2  001       Rx   d 8 05 01 00 00 E5 94 C0 04 
   10.908881 2  001       Rx   d 8 05 01 E5 94 00 00 E5 DC 
   10.909761 2  001       Rx   d 8 05 01 10 16 E2 8D 20 04 
   10.909775 2  001       Rx   d 8 05 01 EB FF FE 9A E3 50 
   10.909785 2  001       Rx   d 8 05 01 00 00 E5 DD C0 04 
   10.909793 2  001       Rx   d 8 05 01 1A 00 00 A4 E3 5C 
   10.911200 2  001       Rx   d 8 05 01 00 00 0A 00 00 A2 
