date 5/4/2023 16:24:36.29
base hex  timestamps absolute
no internal events logged
// TOSUN libLog V2022.10.6.794
   17.970637 1  001       Rx   d 7 11 FF 00 00 00 00 01 
   17.971628 1  001       Rx   d 2 03 FF 
   17.971652 1  001       Rx   d 2 01 FF 
   17.971661 1  600       Rx   d 8 2B 25 10 01 13 03 00 00 
   17.973149 1  001       Rx   d 2 01 FF 
   17.974274 1  601       Rx   d 8 2B 25 10 01 13 03 00 00 
   17.976126 1  001       Rx   d 2 01 FF 
   17.977122 1  602       Rx   d 8 2B 25 10 01 13 03 00 00 
   17.979067 1  001       Rx   d 2 01 FF 
   17.980598 1  603       Rx   d 8 2B 25 10 01 13 03 00 00 
   17.982083 1  001       Rx   d 2 01 FF 
   17.983570 1  604       Rx   d 8 2B 25 10 01 13 03 00 00 
   17.985580 1  001       Rx   d 2 01 FF 
   17.986512 1  605       Rx   d 8 2B 25 10 01 13 03 00 00 
   17.988534 1  001       Rx   d 2 01 FF 
   17.990017 1  606       Rx   d 8 2B 25 10 01 13 03 00 00 
   17.991515 1  001       Rx   d 2 01 FF 
   17.992992 1  607       Rx   d 8 2B 25 10 01 13 03 00 00 
   17.994459 1  001       Rx   d 2 01 FF 
   17.995958 1  608       Rx   d 8 2B 25 10 01 13 03 00 00 
   17.997462 1  001       Rx   d 2 01 FF 
   17.998949 1  609       Rx   d 8 2B 25 10 01 13 03 00 00 
   18.000446 1  001       Rx   d 2 01 FF 
   18.001451 1  60A       Rx   d 8 2B 25 10 01 13 03 00 00 
   18.003473 1  001       Rx   d 2 01 FF 
   18.005036 1  60B       Rx   d 8 2B 25 10 01 13 03 00 00 
   18.006352 1  001       Rx   d 2 01 FF 
   18.007867 1  60C       Rx   d 8 2B 25 10 01 13 03 00 00 
   18.009329 1  001       Rx   d 2 01 FF 
   18.010622 1  60D       Rx   d 8 2B 25 10 01 13 03 00 00 
   18.012312 1  001       Rx   d 2 01 FF 
   18.014450 1  60E       Rx   d 8 2B 25 10 01 13 03 00 00 
   18.016478 1  001       Rx   d 2 01 FF 
   18.017100 1  60F       Rx   d 8 2B 25 10 01 13 03 00 00 
   18.018760 1  001       Rx   d 2 01 FF 
   18.020142 1  610       Rx   d 8 2B 25 10 01 13 03 00 00 
   18.021784 1  001       Rx   d 2 01 FF 
   18.023235 1  611       Rx   d 8 2B 25 10 01 13 03 00 00 
   18.025401 1  001       Rx   d 2 01 FF 
   18.026268 1  612       Rx   d 8 2B 25 10 01 13 03 00 00 
   18.027625 1  001       Rx   d 2 01 FF 
   18.028775 1  613       Rx   d 8 2B 25 10 01 13 03 00 00 
   18.030690 1  001       Rx   d 2 01 FF 
   18.032185 1  614       Rx   d 8 2B 25 10 01 13 03 00 00 
   18.034326 1  001       Rx   d 2 01 FF 
   18.035808 1  615       Rx   d 8 2B 25 10 01 13 03 00 00 
   18.037212 1  001       Rx   d 2 01 FF 
   18.038615 1  616       Rx   d 8 2B 25 10 01 13 03 00 00 
   18.040768 1  001       Rx   d 2 01 FF 
   18.042108 1  617       Rx   d 8 2B 25 10 01 13 03 00 00 
   18.044578 1  001       Rx   d 2 01 FF 
   18.046111 1  618       Rx   d 8 2B 25 10 01 13 03 00 00 
   18.047550 1  001       Rx   d 2 01 FF 
   18.049102 1  619       Rx   d 8 2B 25 10 01 13 03 00 00 
   18.051194 1  001       Rx   d 2 01 FF 
   18.051914 1  61A       Rx   d 8 2B 25 10 01 13 03 00 00 
   18.053716 1  001       Rx   d 2 01 FF 
   18.055503 1  61B       Rx   d 8 2B 25 10 01 13 03 00 00 
   18.057019 1  001       Rx   d 2 01 FF 
   18.059021 1  61C       Rx   d 8 2B 25 10 01 13 03 00 00 
   18.060452 1  001       Rx   d 2 01 FF 
   18.061934 1  61D       Rx   d 8 2B 25 10 01 13 03 00 00 
   18.063927 1  001       Rx   d 2 01 FF 
   18.065418 1  61E       Rx   d 8 2B 25 10 01 13 03 00 00 
   18.067052 1  001       Rx   d 2 01 FF 
   18.068889 1  61F       Rx   d 8 2B 25 10 01 13 03 00 00 
   18.071004 1  001       Rx   d 2 01 FF 
   18.072383 1  620       Rx   d 8 2B 25 10 01 13 03 00 00 
   18.075873 1  001       Rx   d 2 01 FF 
   18.077359 1  621       Rx   d 8 2B 25 10 01 13 03 00 00 
   18.078882 1  001       Rx   d 2 01 FF 
   18.080782 1  622       Rx   d 8 2B 25 10 01 13 03 00 00 
   18.082931 1  001       Rx   d 2 01 FF 
   18.084428 1  623       Rx   d 8 2B 25 10 01 13 03 00 00 
   18.085744 1  001       Rx   d 2 01 FF 
   18.086995 1  624       Rx   d 8 2B 25 10 01 13 03 00 00 
   18.089269 1  001       Rx   d 2 01 FF 
   18.090780 1  625       Rx   d 8 2B 25 10 01 13 03 00 00 
   18.092204 1  001       Rx   d 2 01 FF 
   18.094186 1  626       Rx   d 8 2B 25 10 01 13 03 00 00 
   18.096164 1  001       Rx   d 2 01 FF 
   18.097366 1  627       Rx   d 8 2B 25 10 01 13 03 00 00 
   18.099302 1  001       Rx   d 2 01 FF 
   18.101127 1  628       Rx   d 8 2B 25 10 01 13 03 00 00 
   18.102658 1  001       Rx   d 2 01 FF 
   18.104643 1  629       Rx   d 8 2B 25 10 01 13 03 00 00 
   18.106734 1  001       Rx   d 2 01 FF 
   18.108196 1  62A       Rx   d 8 2B 25 10 01 13 03 00 00 
   18.109542 1  001       Rx   d 2 01 FF 
   18.111539 1  62B       Rx   d 8 2B 25 10 01 13 03 00 00 
   18.113022 1  001       Rx   d 2 01 FF 
   18.115146 1  62C       Rx   d 8 2B 25 10 01 13 03 00 00 
   18.116466 1  001       Rx   d 2 01 FF 
   18.117987 1  62D       Rx   d 8 2B 25 10 01 13 03 00 00 
   18.119475 1  001       Rx   d 2 01 FF 
   18.121126 1  62E       Rx   d 8 2B 25 10 01 13 03 00 00 
   18.123568 1  001       Rx   d 2 01 FF 
   18.124936 1  62F       Rx   d 8 2B 25 10 01 13 03 00 00 
   18.127078 1  001       Rx   d 2 01 FF 
   18.127913 1  630       Rx   d 8 2B 25 10 01 13 03 00 00 
   18.129383 1  001       Rx   d 2 01 FF 
   18.131391 1  631       Rx   d 8 2B 25 10 01 13 03 00 00 
   18.134855 1  001       Rx   d 2 01 FF 
   18.136394 1  632       Rx   d 8 2B 25 10 01 13 03 00 00 
   18.140844 1  001       Rx   d 2 01 FF 
   18.142327 1  633       Rx   d 8 2B 25 10 01 13 03 00 00 
   18.144618 1  001       Rx   d 2 01 FF 
   18.145244 1  634       Rx   d 8 2B 25 10 01 13 03 00 00 
   18.146746 1  001       Rx   d 2 01 FF 
   18.147900 1  635       Rx   d 8 2B 25 10 01 13 03 00 00 
   18.150763 1  001       Rx   d 2 01 FF 
   18.151836 1  636       Rx   d 8 2B 25 10 01 13 03 00 00 
   18.153694 1  001       Rx   d 2 01 FF 
   18.155242 1  637       Rx   d 8 2B 25 10 01 13 03 00 00 
   18.156674 1  001       Rx   d 2 01 FF 
   18.157779 1  638       Rx   d 8 2B 25 10 01 13 03 00 00 
   18.159657 1  001       Rx   d 2 01 FF 
   18.161186 1  639       Rx   d 8 2B 25 10 01 13 03 00 00 
   18.162619 1  001       Rx   d 2 01 FF 
   18.164662 1  63A       Rx   d 8 2B 25 10 01 13 03 00 00 
   18.166114 1  001       Rx   d 2 01 FF 
   18.167598 1  63B       Rx   d 8 2B 25 10 01 13 03 00 00 
   18.169727 1  001       Rx   d 2 01 FF 
   18.171216 1  63C       Rx   d 8 2B 25 10 01 13 03 00 00 
   18.172537 1  001       Rx   d 2 01 FF 
   18.174053 1  63D       Rx   d 8 2B 25 10 01 13 03 00 00 
   18.176175 1  001       Rx   d 2 01 FF 
   18.177667 1  63E       Rx   d 8 2B 25 10 01 13 03 00 00 
   18.178512 1  001       Rx   d 2 01 FF 
   18.180521 1  63F       Rx   d 8 2B 25 10 01 13 03 00 00 
   18.181992 1  001       Rx   d 2 01 FF 
   18.183368 1  640       Rx   d 8 2B 25 10 01 13 03 00 00 
   18.185074 1  001       Rx   d 2 01 FF 
   18.186920 1  641       Rx   d 8 2B 25 10 01 13 03 00 00 
   18.189051 1  001       Rx   d 2 01 FF 
   18.190453 1  642       Rx   d 8 2B 25 10 01 13 03 00 00 
   18.192555 1  001       Rx   d 2 01 FF 
   18.194008 1  643       Rx   d 8 2B 25 10 01 13 03 00 00 
   18.197482 1  001       Rx   d 2 01 FF 
   18.199489 1  644       Rx   d 8 2B 25 10 01 13 03 00 00 
   18.200319 1  001       Rx   d 2 01 FF 
   18.201464 1  645       Rx   d 8 2B 25 10 01 13 03 00 00 
   18.203927 1  001       Rx   d 2 01 FF 
   18.205414 1  646       Rx   d 8 2B 25 10 01 13 03 00 00 
   18.207420 1  001       Rx   d 2 01 FF 
   18.208870 1  647       Rx   d 8 2B 25 10 01 13 03 00 00 
   18.210790 1  001       Rx   d 2 01 FF 
   18.212208 1  648       Rx   d 8 2B 25 10 01 13 03 00 00 
   18.213814 1  001       Rx   d 2 01 FF 
   18.215323 1  649       Rx   d 8 2B 25 10 01 13 03 00 00 
   18.217325 1  001       Rx   d 2 01 FF 
   18.218166 1  64A       Rx   d 8 2B 25 10 01 13 03 00 00 
   18.220330 1  001       Rx   d 2 01 FF 
   18.221807 1  64B       Rx   d 8 2B 25 10 01 13 03 00 00 
   18.223141 1  001       Rx   d 2 01 FF 
   18.224651 1  64C       Rx   d 8 2B 25 10 01 13 03 00 00 
   18.227647 1  001       Rx   d 2 01 FF 
   18.228731 1  64D       Rx   d 8 2B 25 10 01 13 03 00 00 
   18.230593 1  001       Rx   d 2 01 FF 
   18.232056 1  64E       Rx   d 8 2B 25 10 01 13 03 00 00 
   18.234206 1  001       Rx   d 2 01 FF 
   18.235540 1  64F       Rx   d 8 2B 25 10 01 13 03 00 00 
   18.237683 1  001       Rx   d 2 01 FF 
   18.238766 1  650       Rx   d 8 2B 25 10 01 13 03 00 00 
   18.241040 1  001       Rx   d 2 01 FF 
   18.242149 1  651       Rx   d 8 2B 25 10 01 13 03 00 00 
   18.244134 1  001       Rx   d 2 01 FF 
   18.245976 1  652       Rx   d 8 2B 25 10 01 13 03 00 00 
   18.247418 1  001       Rx   d 2 01 FF 
   18.249436 1  653       Rx   d 8 2B 25 10 01 13 03 00 00 
   18.250896 1  001       Rx   d 2 01 FF 
   18.253030 1  654       Rx   d 8 2B 25 10 01 13 03 00 00 
   18.255016 1  001       Rx   d 2 01 FF 
   18.256375 1  655       Rx   d 8 2B 25 10 01 13 03 00 00 
   18.258734 1  001       Rx   d 2 01 FF 
   18.261295 1  656       Rx   d 8 2B 25 10 01 13 03 00 00 
   18.263803 1  001       Rx   d 2 01 FF 
   18.265317 1  657       Rx   d 8 2B 25 10 01 13 03 00 00 
   18.266917 1  001       Rx   d 2 01 FF 
   18.268778 1  658       Rx   d 8 2B 25 10 01 13 03 00 00 
   18.270900 1  001       Rx   d 2 01 FF 
   18.272062 1  659       Rx   d 8 2B 25 10 01 13 03 00 00 
   18.273778 1  001       Rx   d 2 01 FF 
   18.275006 1  65A       Rx   d 8 2B 25 10 01 13 03 00 00 
   18.277328 1  001       Rx   d 2 01 FF 
   18.278690 1  65B       Rx   d 8 2B 25 10 01 13 03 00 00 
   18.280172 1  001       Rx   d 2 01 FF 
   18.281572 1  65C       Rx   d 8 2B 25 10 01 13 03 00 00 
   18.283810 1  001       Rx   d 2 01 FF 
   18.285299 1  65D       Rx   d 8 2B 25 10 01 13 03 00 00 
   18.286803 1  001       Rx   d 2 01 FF 
   18.288168 1  65E       Rx   d 8 2B 25 10 01 13 03 00 00 
   18.290222 1  001       Rx   d 2 01 FF 
   18.291588 1  65F       Rx   d 8 2B 25 10 01 13 03 00 00 
   18.293728 1  001       Rx   d 2 01 FF 
   18.295108 1  660       Rx   d 8 2B 25 10 01 13 03 00 00 
   18.296580 1  001       Rx   d 2 01 FF 
   18.298548 1  661       Rx   d 8 2B 25 10 01 13 03 00 00 
   18.300122 1  001       Rx   d 2 01 FF 
   18.302021 1  662       Rx   d 8 2B 25 10 01 13 03 00 00 
   18.305040 1  001       Rx   d 2 01 FF 
   18.307076 1  663       Rx   d 8 2B 25 10 01 13 03 00 00 
   18.308575 1  001       Rx   d 2 01 FF 
   18.310442 1  664       Rx   d 8 2B 25 10 01 13 03 00 00 
   18.312536 1  001       Rx   d 2 01 FF 
   18.314032 1  665       Rx   d 8 2B 25 10 01 13 03 00 00 
   18.315561 1  001       Rx   d 2 01 FF 
   18.317406 1  666       Rx   d 8 2B 25 10 01 13 03 00 00 
   18.319402 1  001       Rx   d 2 01 FF 
   18.320968 1  667       Rx   d 8 2B 25 10 01 13 03 00 00 
   18.323818 1  001       Rx   d 2 01 FF 
   18.325370 1  668       Rx   d 8 2B 25 10 01 13 03 00 00 
   18.327837 1  001       Rx   d 2 01 FF 
   18.328888 1  669       Rx   d 8 2B 25 10 01 13 03 00 00 
   18.331313 1  001       Rx   d 2 01 FF 
   18.332417 1  66A       Rx   d 8 2B 25 10 01 13 03 00 00 
   18.335729 1  001       Rx   d 2 01 FF 
   18.336893 1  66B       Rx   d 8 2B 25 10 01 13 03 00 00 
   18.338706 1  001       Rx   d 2 01 FF 
   18.340300 1  66C       Rx   d 8 2B 25 10 01 13 03 00 00 
   18.342176 1  001       Rx   d 2 01 FF 
   18.343669 1  66D       Rx   d 8 2B 25 10 01 13 03 00 00 
   18.345148 1  001       Rx   d 2 01 FF 
   18.346628 1  66E       Rx   d 8 2B 25 10 01 13 03 00 00 
   18.348127 1  001       Rx   d 2 01 FF 
   18.349171 1  66F       Rx   d 8 2B 25 10 01 13 03 00 00 
   18.352088 1  001       Rx   d 2 01 FF 
   18.353623 1  670       Rx   d 8 2B 25 10 01 13 03 00 00 
   18.355618 1  001       Rx   d 2 01 FF 
   18.357109 1  671       Rx   d 8 2B 25 10 01 13 03 00 00 
   18.358541 1  001       Rx   d 2 01 FF 
   18.360082 1  672       Rx   d 8 2B 25 10 01 13 03 00 00 
   18.362317 1  001       Rx   d 2 01 FF 
   18.363484 1  673       Rx   d 8 2B 25 10 01 13 03 00 00 
   18.364986 1  001       Rx   d 2 01 FF 
   18.366086 1  674       Rx   d 8 2B 25 10 01 13 03 00 00 
   18.367960 1  001       Rx   d 2 01 FF 
   18.369063 1  675       Rx   d 8 2B 25 10 01 13 03 00 00 
   18.370938 1  001       Rx   d 2 01 FF 
   18.372466 1  676       Rx   d 8 2B 25 10 01 13 03 00 00 
   18.373915 1  001       Rx   d 2 01 FF 
   18.375428 1  677       Rx   d 8 2B 25 10 01 13 03 00 00 
   18.377421 1  001       Rx   d 2 01 FF 
   18.378907 1  678       Rx   d 8 2B 25 10 01 13 03 00 00 
   18.379842 1  001       Rx   d 2 01 FF 
   18.381368 1  679       Rx   d 8 2B 25 10 01 13 03 00 00 
   18.382855 1  001       Rx   d 2 01 FF 
   18.384354 1  67A       Rx   d 8 2B 25 10 01 13 03 00 00 
   18.385838 1  001       Rx   d 2 01 FF 
   18.387315 1  67B       Rx   d 8 2B 25 10 01 13 03 00 00 
   18.388813 1  001       Rx   d 2 01 FF 
   18.390305 1  67C       Rx   d 8 2B 25 10 01 13 03 00 00 
   18.392290 1  001       Rx   d 2 01 FF 
   18.393776 1  67D       Rx   d 8 2B 25 10 01 13 03 00 00 
   18.395736 1  001       Rx   d 2 01 FF 
   18.397283 1  67E       Rx   d 8 2B 25 10 01 13 03 00 00 
   18.399192 1  001       Rx   d 2 01 FF 
   18.401215 1  67F       Rx   d 8 2B 25 10 01 13 03 00 00 
   18.402701 1  001       Rx   d 2 01 FF 
   18.404186 1  680       Rx   d 8 2B 25 10 01 13 03 00 00 
   18.406776 1  001       Rx   d 2 01 FF 
   18.407665 1  681       Rx   d 8 2B 25 10 01 13 03 00 00 
   18.409150 1  001       Rx   d 2 01 FF 
   18.410629 1  682       Rx   d 8 2B 25 10 01 13 03 00 00 
   18.412133 1  001       Rx   d 2 01 FF 
   18.413168 1  683       Rx   d 8 2B 25 10 01 13 03 00 00 
   18.415100 1  001       Rx   d 2 01 FF 
   18.416242 1  684       Rx   d 8 2B 25 10 01 13 03 00 00 
   18.418032 1  001       Rx   d 2 01 FF 
   18.420048 1  685       Rx   d 8 2B 25 10 01 13 03 00 00 
   18.421534 1  001       Rx   d 2 01 FF 
   18.422518 1  686       Rx   d 8 2B 25 10 01 13 03 00 00 
   18.424479 1  001       Rx   d 2 01 FF 
   18.426494 1  687       Rx   d 8 2B 25 10 01 13 03 00 00 
   18.427947 1  001       Rx   d 2 01 FF 
   18.429965 1  688       Rx   d 8 2B 25 10 01 13 03 00 00 
   18.431420 1  001       Rx   d 2 01 FF 
   18.432454 1  689       Rx   d 8 2B 25 10 01 13 03 00 00 
   18.434396 1  001       Rx   d 2 01 FF 
   18.436429 1  68A       Rx   d 8 2B 25 10 01 13 03 00 00 
   18.437902 1  001       Rx   d 2 01 FF 
   18.439417 1  68B       Rx   d 8 2B 25 10 01 13 03 00 00 
   18.441390 1  001       Rx   d 2 01 FF 
   18.442878 1  68C       Rx   d 8 2B 25 10 01 13 03 00 00 
   18.444416 1  001       Rx   d 2 01 FF 
   18.446352 1  68D       Rx   d 8 2B 25 10 01 13 03 00 00 
   18.447840 1  001       Rx   d 2 01 FF 
   18.449323 1  68E       Rx   d 8 2B 25 10 01 13 03 00 00 
   18.450812 1  001       Rx   d 2 01 FF 
   18.451847 1  68F       Rx   d 8 2B 25 10 01 13 03 00 00 
   18.453801 1  001       Rx   d 2 01 FF 
   18.455285 1  690       Rx   d 8 2B 25 10 01 13 03 00 00 
   18.457262 1  001       Rx   d 2 01 FF 
   18.458743 1  691       Rx   d 8 2B 25 10 01 13 03 00 00 
   18.460237 1  001       Rx   d 2 01 FF 
   18.461238 1  692       Rx   d 8 2B 25 10 01 13 03 00 00 
   18.463193 1  001       Rx   d 2 01 FF 
   18.464350 1  693       Rx   d 8 2B 25 10 01 13 03 00 00 
   18.466679 1  001       Rx   d 2 01 FF 
   18.468164 1  694       Rx   d 8 2B 25 10 01 13 03 00 00 
   18.470157 1  001       Rx   d 2 01 FF 
   18.471612 1  695       Rx   d 8 2B 25 10 01 13 03 00 00 
   18.473128 1  001       Rx   d 2 01 FF 
   18.474378 1  696       Rx   d 8 2B 25 10 01 13 03 00 00 
   18.476755 1  001       Rx   d 2 01 FF 
   18.477572 1  697       Rx   d 8 2B 25 10 01 13 03 00 00 
   18.479050 1  001       Rx   d 2 01 FF 
   18.480725 1  698       Rx   d 8 2B 25 10 01 13 03 00 00 
   18.481751 1  001       Rx   d 2 01 FF 
   18.483656 1  699       Rx   d 8 2B 25 10 01 13 03 00 00 
   18.485033 1  001       Rx   d 2 01 FF 
   18.486358 1  69A       Rx   d 8 2B 25 10 01 13 03 00 00 
   18.489140 1  001       Rx   d 2 01 FF 
   18.490611 1  69B       Rx   d 8 2B 25 10 01 13 03 00 00 
   18.491955 1  001       Rx   d 2 01 FF 
   18.493361 1  69C       Rx   d 8 2B 25 10 01 13 03 00 00 
   18.495485 1  001       Rx   d 2 01 FF 
   18.496918 1  69D       Rx   d 8 2B 25 10 01 13 03 00 00 
   18.498539 1  001       Rx   d 2 01 FF 
   18.500030 1  69E       Rx   d 8 2B 25 10 01 13 03 00 00 
   18.501402 1  001       Rx   d 2 01 FF 
   18.502730 1  69F       Rx   d 8 2B 25 10 01 13 03 00 00 
   18.506780 1  001       Rx   d 2 01 FF 
   18.506828 1  6A0       Rx   d 8 2B 25 10 01 13 03 00 00 
   18.507910 1  001       Rx   d 2 01 FF 
   18.509282 1  6A1       Rx   d 8 2B 25 10 01 13 03 00 00 
   18.510800 1  001       Rx   d 2 01 FF 
   18.512839 1  6A2       Rx   d 8 2B 25 10 01 13 03 00 00 
   18.514285 1  001       Rx   d 2 01 FF 
   18.515895 1  6A3       Rx   d 8 2B 25 10 01 13 03 00 00 
   18.517806 1  001       Rx   d 2 01 FF 
   18.518844 1  6A4       Rx   d 8 2B 25 10 01 13 03 00 00 
   18.520362 1  001       Rx   d 2 01 FF 
   18.521715 1  6A5       Rx   d 8 2B 25 10 01 13 03 00 00 
   18.523201 1  001       Rx   d 2 01 FF 
   18.524519 1  6A6       Rx   d 8 2B 25 10 01 13 03 00 00 
   18.526843 1  001       Rx   d 2 01 FF 
   18.528215 1  6A7       Rx   d 8 2B 25 10 01 13 03 00 00 
   18.529571 1  001       Rx   d 2 01 FF 
   18.531312 1  6A8       Rx   d 8 2B 25 10 01 13 03 00 00 
   18.532810 1  001       Rx   d 2 01 FF 
   18.533658 1  6A9       Rx   d 8 2B 25 10 01 13 03 00 00 
   18.536095 1  001       Rx   d 2 01 FF 
   18.537600 1  6AA       Rx   d 8 2B 25 10 01 13 03 00 00 
   18.539076 1  001       Rx   d 2 01 FF 
   18.540469 1  6AB       Rx   d 8 2B 25 10 01 13 03 00 00 
   18.542731 1  001       Rx   d 2 01 FF 
   18.543548 1  6AC       Rx   d 8 2B 25 10 01 13 03 00 00 
   18.545062 1  001       Rx   d 2 01 FF 
   18.547002 1  6AD       Rx   d 8 2B 25 10 01 13 03 00 00 
   18.548516 1  001       Rx   d 2 01 FF 
   18.550109 1  6AE       Rx   d 8 2B 25 10 01 13 03 00 00 
   18.551975 1  001       Rx   d 2 01 FF 
   18.553311 1  6AF       Rx   d 8 2B 25 10 01 13 03 00 00 
   18.554954 1  001       Rx   d 2 01 FF 
   18.556291 1  6B0       Rx   d 8 2B 25 10 01 13 03 00 00 
   18.557931 1  001       Rx   d 2 01 FF 
   18.559258 1  6B1       Rx   d 8 2B 25 10 01 13 03 00 00 
   18.561936 1  001       Rx   d 2 01 FF 
   18.563565 1  6B2       Rx   d 8 2B 25 10 01 13 03 00 00 
   18.565357 1  001       Rx   d 2 01 FF 
   18.566495 1  6B3       Rx   d 8 2B 25 10 01 13 03 00 00 
   18.568334 1  001       Rx   d 2 01 FF 
   18.569766 1  6B4       Rx   d 8 2B 25 10 01 13 03 00 00 
   18.571483 1  001       Rx   d 2 01 FF 
   18.573308 1  6B5       Rx   d 8 2B 25 10 01 13 03 00 00 
   18.575438 1  001       Rx   d 2 01 FF 
   18.576280 1  6B6       Rx   d 8 2B 25 10 01 13 03 00 00 
   18.577934 1  001       Rx   d 2 01 FF 
   18.579780 1  6B7       Rx   d 8 2B 25 10 01 13 03 00 00 
   18.581311 1  001       Rx   d 2 01 FF 
   18.582732 1  6B8       Rx   d 8 2B 25 10 01 13 03 00 00 
   18.584217 1  001       Rx   d 2 01 FF 
   18.585707 1  6B9       Rx   d 8 2B 25 10 01 13 03 00 00 
   18.587176 1  001       Rx   d 2 01 FF 
   18.588810 1  6BA       Rx   d 8 2B 25 10 01 13 03 00 00 
   18.590186 1  001       Rx   d 2 01 FF 
   18.591658 1  6BB       Rx   d 8 2B 25 10 01 13 03 00 00 
   18.593789 1  001       Rx   d 2 01 FF 
   18.594644 1  6BC       Rx   d 8 2B 25 10 01 13 03 00 00 
   18.596118 1  001       Rx   d 2 01 FF 
   18.598046 1  6BD       Rx   d 8 2B 25 10 01 13 03 00 00 
   18.599581 1  001       Rx   d 2 01 FF 
   18.601699 1  6BE       Rx   d 8 2B 25 10 01 13 03 00 00 
   18.603714 1  001       Rx   d 2 01 FF 
   18.604546 1  6BF       Rx   d 8 2B 25 10 01 13 03 00 00 
   18.606039 1  001       Rx   d 2 01 FF 
   18.607410 1  6C0       Rx   d 8 2B 25 10 01 13 03 00 00 
   18.609002 1  001       Rx   d 2 01 FF 
   18.610507 1  6C1       Rx   d 8 2B 25 10 01 13 03 00 00 
   18.612029 1  001       Rx   d 2 01 FF 
   18.613620 1  6C2       Rx   d 8 2B 25 10 01 13 03 00 00 
   18.615603 1  001       Rx   d 2 01 FF 
   18.616588 1  6C3       Rx   d 8 2B 25 10 01 13 03 00 00 
   18.617933 1  001       Rx   d 2 01 FF 
   18.619320 1  6C4       Rx   d 8 2B 25 10 01 13 03 00 00 
   18.620904 1  001       Rx   d 2 01 FF 
   18.622313 1  6C5       Rx   d 8 2B 25 10 01 13 03 00 00 
   18.623881 1  001       Rx   d 2 01 FF 
   18.625064 1  6C6       Rx   d 8 2B 25 10 01 13 03 00 00 
   18.626868 1  001       Rx   d 2 01 FF 
   18.627890 1  6C7       Rx   d 8 2B 25 10 01 13 03 00 00 
   18.629895 1  001       Rx   d 2 01 FF 
   18.631963 1  6C8       Rx   d 8 2B 25 10 01 13 03 00 00 
   18.633314 1  001       Rx   d 2 01 FF 
   18.634710 1  6C9       Rx   d 8 2B 25 10 01 13 03 00 00 
   18.636962 1  001       Rx   d 2 01 FF 
   18.638285 1  6CA       Rx   d 8 2B 25 10 01 13 03 00 00 
   18.639895 1  001       Rx   d 2 01 FF 
   18.641358 1  6CB       Rx   d 8 2B 25 10 01 13 03 00 00 
   18.643243 1  001       Rx   d 2 01 FF 
   18.644617 1  6CC       Rx   d 8 2B 25 10 01 13 03 00 00 
   18.646248 1  001       Rx   d 2 01 FF 
   18.647592 1  6CD       Rx   d 8 2B 25 10 01 13 03 00 00 
   18.649854 1  001       Rx   d 2 01 FF 
   18.651310 1  6CE       Rx   d 8 2B 25 10 01 13 03 00 00 
   18.653324 1  001       Rx   d 2 01 FF 
   18.654157 1  6CF       Rx   d 8 2B 25 10 01 13 03 00 00 
   18.655641 1  001       Rx   d 2 01 FF 
   18.657782 1  6D0       Rx   d 8 2B 25 10 01 13 03 00 00 
   18.659099 1  001       Rx   d 2 01 FF 
   18.660616 1  6D1       Rx   d 8 2B 25 10 01 13 03 00 00 
   18.662568 1  001       Rx   d 2 01 FF 
   18.664208 1  6D2       Rx   d 8 2B 25 10 01 13 03 00 00 
   18.665545 1  001       Rx   d 2 01 FF 
   18.666861 1  6D3       Rx   d 8 2B 25 10 01 13 03 00 00 
   18.669203 1  001       Rx   d 2 01 FF 
   18.670655 1  6D4       Rx   d 8 2B 25 10 01 13 03 00 00 
   18.673636 1  001       Rx   d 2 01 FF 
   18.674617 1  6D5       Rx   d 8 2B 25 10 01 13 03 00 00 
   18.676048 1  001       Rx   d 2 01 FF 
   18.677467 1  6D6       Rx   d 8 2B 25 10 01 13 03 00 00 
   18.678957 1  001       Rx   d 2 01 FF 
   18.680577 1  6D7       Rx   d 8 2B 25 10 01 13 03 00 00 
   18.681941 1  001       Rx   d 2 01 FF 
   18.683543 1  6D8       Rx   d 8 2B 25 10 01 13 03 00 00 
   18.684975 1  001       Rx   d 2 01 FF 
   18.686386 1  6D9       Rx   d 8 2B 25 10 01 13 03 00 00 
   18.688410 1  001       Rx   d 2 01 FF 
   18.689906 1  6DA       Rx   d 8 2B 25 10 01 13 03 00 00 
   18.691895 1  001       Rx   d 2 01 FF 
   18.693468 1  6DB       Rx   d 8 2B 25 10 01 13 03 00 00 
   18.694846 1  001       Rx   d 2 01 FF 
   18.696947 1  6DC       Rx   d 8 2B 25 10 01 13 03 00 00 
   18.698289 1  001       Rx   d 2 01 FF 
   18.699688 1  6DD       Rx   d 8 2B 25 10 01 13 03 00 00 
   18.701268 1  001       Rx   d 2 01 FF 
   18.702670 1  6DE       Rx   d 8 2B 25 10 01 13 03 00 00 
   18.704259 1  001       Rx   d 2 01 FF 
   18.705553 1  6DF       Rx   d 8 2B 25 10 01 13 03 00 00 
   18.707215 1  001       Rx   d 2 01 FF 
   18.709346 1  6E0       Rx   d 8 2B 25 10 01 13 03 00 00 
   18.710844 1  001       Rx   d 2 01 FF 
   18.711736 1  6E1       Rx   d 8 2B 25 10 01 13 03 00 00 
   18.713167 1  001       Rx   d 2 01 FF 
   18.714839 1  6E2       Rx   d 8 2B 25 10 01 13 03 00 00 
   18.716782 1  001       Rx   d 2 01 FF 
   18.718128 1  6E3       Rx   d 8 2B 25 10 01 13 03 00 00 
   18.719197 1  001       Rx   d 2 01 FF 
   18.720423 1  6E4       Rx   d 8 2B 25 10 01 13 03 00 00 
   18.722717 1  001       Rx   d 2 01 FF 
   18.724221 1  6E5       Rx   d 8 2B 25 10 01 13 03 00 00 
   18.726213 1  001       Rx   d 2 01 FF 
   18.727068 1  6E6       Rx   d 8 2B 25 10 01 13 03 00 00 
   18.729190 1  001       Rx   d 2 01 FF 
   18.729982 1  6E7       Rx   d 8 2B 25 10 01 13 03 00 00 
   18.731514 1  001       Rx   d 2 01 FF 
   18.733058 1  6E8       Rx   d 8 2B 25 10 01 13 03 00 00 
   18.736025 1  001       Rx   d 2 01 FF 
   18.737086 1  6E9       Rx   d 8 2B 25 10 01 13 03 00 00 
   18.739070 1  001       Rx   d 2 01 FF 
   18.740280 1  6EA       Rx   d 8 2B 25 10 01 13 03 00 00 
   18.741930 1  001       Rx   d 2 01 FF 
   18.743330 1  6EB       Rx   d 8 2B 25 10 01 13 03 00 00 
   18.744829 1  001       Rx   d 2 01 FF 
   18.747028 1  6EC       Rx   d 8 2B 25 10 01 13 03 00 00 
   18.748400 1  001       Rx   d 2 01 FF 
   18.750409 1  6ED       Rx   d 8 2B 25 10 01 13 03 00 00 
   18.751907 1  001       Rx   d 2 01 FF 
   18.753241 1  6EE       Rx   d 8 2B 25 10 01 13 03 00 00 
   18.754828 1  001       Rx   d 2 01 FF 
   18.756160 1  6EF       Rx   d 8 2B 25 10 01 13 03 00 00 
   18.757798 1  001       Rx   d 2 01 FF 
   18.759141 1  6F0       Rx   d 8 2B 25 10 01 13 03 00 00 
   18.760779 1  001       Rx   d 2 01 FF 
   18.762830 1  6F1       Rx   d 8 2B 25 10 01 13 03 00 00 
   18.765248 1  001       Rx   d 2 01 FF 
   18.767375 1  6F2       Rx   d 8 2B 25 10 01 13 03 00 00 
